;$FILEVERSION=1.3
;$STARTTIME=44154.4831272353
;
;   D:\Dropbox\EV Parts\Laptop Code\C#\PCAN-UDS-Demo\logs\UDS Demo Monitor.trc
;   Start time: 19/11/2020 11:35:42.193.1
;   Generated by PCAN-Explorer v5.4.0
;-------------------------------------------------------------------------------
;   Bus  Name         Connection             Protocol  Bit rate
;   1    Connection1  single can 1@pcan_usb  CAN       250 kbit/s
;-------------------------------------------------------------------------------
;   Message Number
;   |         Time Offset (ms)
;   |         |       Bus
;   |         |       |    Type
;   |         |       |    |       ID (hex)
;   |         |       |    |       |    Reserved
;   |         |       |    |       |    |   Data Length Code
;   |         |       |    |       |    |   |    Data Bytes (hex) ...
;   |         |       |    |       |    |   |    |
;   |         |       |    |       |    |   |    |
;---+-- ------+------ +- --+-- ----+--- +- -+-- -+ -- -- -- -- -- -- --
     1)     32003.887 1  Rx        07E0 -  8    02 10 01 55 55 55 55 55 
     2)     32009.775 1  Rx        07E8 -  8    06 50 01 00 10 03 E8 55 
     3)     32017.540 1  Rx        07E0 -  8    02 10 02 55 55 55 55 55 
     4)     32019.460 1  Rx        07E8 -  8    06 50 02 00 10 03 E8 55 
     5)     34025.191 1  Rx        07E0 -  8    02 3E 80 55 55 55 55 55 
     6)     36025.946 1  Rx        07E0 -  8    02 3E 80 55 55 55 55 55 
     7)     36078.639 1  Rx        07E0 -  8    02 10 01 55 55 55 55 55 
     8)     36084.484 1  Rx        07E8 -  8    06 50 01 00 10 03 E8 55 
     9)     40100.978 1  Rx        07E0 -  8    02 11 03 55 55 55 55 55 
    10)     40106.696 1  Rx        07E8 -  8    02 51 03 55 55 55 55 55 
    11)     40122.269 1  Rx        07E0 -  8    06 27 01 F0 A1 B2 C3 55 
    12)     40126.109 1  Rx        07E8 -  8    02 67 01 55 55 55 55 55 
    13)     40139.762 1  Rx        07E0 -  8    03 28 00 F3 55 55 55 55 
    14)     40145.650 1  Rx        07E8 -  8    02 68 00 55 55 55 55 55 
    15)     40157.340 1  Rx        07E0 -  8    02 3E 00 55 55 55 55 55 
    16)     40161.223 1  Rx        07E8 -  8    02 7E 00 55 55 55 55 55 
    17)     40174.961 1  Rx        07E0 -  8    02 3E 80 55 55 55 55 55 
    18)     40227.654 1  Rx        07DF -  8    02 3E 00 55 55 55 55 55 
    19)     40231.536 1  Rx        07E8 -  8    02 7E 00 55 55 55 55 55 
    20)     40278.426 1  Rx        07DF -  8    02 3E 80 55 55 55 55 55 
    21)     40397.464 1  Rx        07E0 -  8    05 84 F0 A1 B2 C3 55 55 
    22)     40403.352 1  Rx        07E8 -  8    10 2E C4 01 02 03 04 05 
    23)     40404.163 1  Rx        07E0 -  8    30 0A 0A 55 55 55 55 55 
    24)     40415.043 1  Rx        07E8 -  8    21 06 07 08 09 0A 0B 0C 
    25)     40425.752 1  Rx        07E8 -  8    22 0D 0E 0F 10 11 12 13 
    26)     40436.504 1  Rx        07E8 -  8    23 14 15 16 17 18 19 1A 
    27)     40447.213 1  Rx        07E8 -  8    24 1B 1C 1D 1E 1F 20 21 
    28)     40457.965 1  Rx        07E8 -  8    25 22 23 24 25 26 27 28 
    29)     40468.717 1  Rx        07E8 -  8    26 29 2A 2B 2C 2D 55 55 
    30)     40489.239 1  Rx        07E0 -  8    05 85 02 F1 A1 B2 55 55 
    31)     40495.042 1  Rx        07E8 -  8    02 C5 02 55 55 55 55 55 
    32)     40514.583 1  Rx        07E0 -  8    07 86 01 08 08 19 01 01 
    33)     40518.465 1  Rx        07E8 -  8    04 C6 01 00 08 55 55 55 
    34)     40539.969 1  Rx        07E0 -  8    03 87 01 11 55 55 55 55 
    35)     40543.852 1  Rx        07E8 -  8    02 C7 01 55 55 55 55 55 
    36)     40553.622 1  Rx        07E0 -  8    05 87 02 07 A1 20 55 55 
    37)     40557.505 1  Rx        07E8 -  8    02 C7 02 55 55 55 55 55 
    38)     40569.238 1  Rx        07E0 -  8    02 87 03 55 55 55 55 55 
    39)     40573.163 1  Rx        07E8 -  8    02 C7 03 55 55 55 55 55 
    40)     40588.736 1  Rx        07E0 -  8    05 22 F1 86 F1 8B 55 55 
    41)     40594.624 1  Rx        07E8 -  8    10 0F 62 F1 86 41 42 43 
    42)     40595.477 1  Rx        07E0 -  8    30 0A 0A 55 55 55 55 55 
    43)     40606.315 1  Rx        07E8 -  8    21 44 45 F1 8B 41 42 43 
    44)     40617.024 1  Rx        07E8 -  8    22 44 45 55 55 55 55 55 
    45)     40635.626 1  Rx        07E0 -  8    10 0F 23 3A 41 42 43 44 
    46)     40636.351 1  Rx        07E8 -  8    30 0A 0A 55 55 55 55 55 
    47)     40647.274 1  Rx        07E0 -  8    21 45 46 47 48 49 4A 31 
    48)     40657.983 1  Rx        07E0 -  8    22 32 33 55 55 55 55 55 
    49)     40662.890 1  Rx        07E8 -  8    05 63 01 02 03 04 55 55 
    50)     40676.585 1  Rx        07E0 -  8    03 24 F1 83 55 55 55 55 
    51)     40680.553 1  Rx        07E8 -  8    10 0B 64 F1 83 01 90 00 
    52)     40681.364 1  Rx        07E0 -  8    30 0A 0A 55 55 55 55 55 
    53)     40692.244 1  Rx        07E8 -  8    21 E0 4B 00 1E A0 55 55 
    54)     40711.742 1  Rx        07E0 -  8    10 0C 2A 02 41 42 43 44 
    55)     40712.553 1  Rx        07E8 -  8    30 0A 0A 55 55 55 55 55 
    56)     40723.433 1  Rx        07E0 -  8    21 45 46 47 48 49 4A 55 
    57)     40727.358 1  Rx        07E8 -  8    01 6A 55 55 55 55 55 55 
    58)     40739.091 1  Rx        07E0 -  8    10 2C 2C 01 F1 9B F0 41 
    59)     40739.859 1  Rx        07E8 -  8    30 0A 0A 55 55 55 55 55 
    60)     40750.782 1  Rx        07E0 -  8    21 64 01 F1 42 65 02 F2 
    61)     40761.533 1  Rx        07E0 -  8    22 43 66 03 F3 44 67 04 
    62)     40772.243 1  Rx        07E0 -  8    23 F4 45 68 05 F5 46 69 
    63)     40782.994 1  Rx        07E0 -  8    24 06 F6 47 6A 07 F7 48 
    64)     40793.704 1  Rx        07E0 -  8    25 6B 08 F8 49 6C 09 F9 
    65)     40804.455 1  Rx        07E0 -  8    26 4A 6D 0A 55 55 55 55 
    66)     40811.282 1  Rx        07E8 -  8    04 6C 01 F1 9B 55 55 55 
    67)     40828.860 1  Rx        07E0 -  8    10 1D 2C 02 F1 9C 35 01 
    68)     40829.628 1  Rx        07E8 -  8    30 0A 0A 55 55 55 55 55 
    69)     40840.551 1  Rx        07E0 -  8    21 02 03 04 05 65 66 67 
    70)     40851.303 1  Rx        07E0 -  8    22 0B 0C 0D 0E 0F 6F 70 
    71)     40861.951 1  Rx        07E0 -  8    23 71 15 16 17 18 19 79 
    72)     40872.703 1  Rx        07E0 -  8    24 7A 7B 55 55 55 55 55 
    73)     40877.609 1  Rx        07E8 -  8    04 6C 02 F1 9C 55 55 55 
    74)     40885.417 1  Rx        07E0 -  8    04 2C 03 F1 9C 55 55 55 
    75)     40889.342 1  Rx        07E8 -  8    04 6C 03 F1 9C 55 55 55 
    76)     40904.916 1  Rx        07E0 -  8    10 0D 2E F1 84 41 42 43 
    77)     40905.726 1  Rx        07E8 -  8    30 0A 0A 55 55 55 55 55 
    78)     40916.563 1  Rx        07E0 -  8    21 44 45 46 47 48 49 4A 
    79)     40920.531 1  Rx        07E8 -  8    03 6E F1 84 55 55 55 55 
    80)     40932.264 1  Rx        07E0 -  8    10 3C 3D 35 41 42 43 44 
    81)     40932.990 1  Rx        07E8 -  8    30 0A 0A 55 55 55 55 55 
    82)     40944.040 1  Rx        07E0 -  8    21 45 0A 0B 0C 01 02 03 
    83)     40954.749 1  Rx        07E0 -  8    22 04 05 06 07 08 09 0A 
    84)     40965.416 1  Rx        07E0 -  8    23 0B 0C 0D 0E 0F 10 11 
    85)     40976.168 1  Rx        07E0 -  8    24 12 13 14 15 16 17 18 
    86)     40986.877 1  Rx        07E0 -  8    25 19 1A 1B 1C 1D 1E 1F 
    87)     40997.671 1  Rx        07E0 -  8    26 20 21 22 23 24 25 26 
    88)     41008.381 1  Rx        07E0 -  8    27 27 28 29 2A 2B 2C 2D 
    89)     41019.175 1  Rx        07E0 -  8    28 2E 2F 30 31 32 55 55 
    90)     41029.884 1  Rx        07E8 -  8    10 0A 7D 35 41 42 43 44 
    91)     41030.738 1  Rx        07E0 -  8    30 0A 0A 55 55 55 55 55 
    92)     41041.617 1  Rx        07E8 -  8    21 45 0A 0B 0C 55 55 55 
    93)     41055.271 1  Rx        07E0 -  8    04 14 F1 A2 B3 55 55 55 
    94)     41061.116 1  Rx        07E8 -  8    01 54 55 55 55 55 55 55 
    95)     41070.886 1  Rx        07E0 -  8    03 19 01 F1 55 55 55 55 
    96)     41074.726 1  Rx        07E8 -  8    10 1A 59 19 02 03 04 05 
    97)     41075.537 1  Rx        07E0 -  8    30 0A 0A 55 55 55 55 55 
    98)     41086.502 1  Rx        07E8 -  8    21 06 07 08 09 0A 0B 0C 
    99)     41097.254 1  Rx        07E8 -  8    22 0D 0E 0F 10 11 12 13 
   100)     41108.091 1  Rx        07E8 -  8    23 14 15 16 17 18 19 55 
   101)     41119.611 1  Rx        07E0 -  8    06 19 04 A1 B2 B3 12 55 
   102)     41125.669 1  Rx        07E8 -  8    10 1A 59 19 02 03 04 05 
   103)     41126.565 1  Rx        07E0 -  8    30 0A 0A 55 55 55 55 55 
   104)     41137.232 1  Rx        07E8 -  8    21 06 07 08 09 0A 0B 0C 
   105)     41147.941 1  Rx        07E8 -  8    22 0D 0E 0F 10 11 12 13 
   106)     41158.693 1  Rx        07E8 -  8    23 14 15 16 17 18 19 55 
   107)     41170.383 1  Rx        07E0 -  8    03 19 05 12 55 55 55 55 
   108)     41176.314 1  Rx        07E8 -  8    10 1A 59 19 02 03 04 05 
   109)     41177.082 1  Rx        07E0 -  8    30 0A 0A 55 55 55 55 55 
   110)     41188.047 1  Rx        07E8 -  8    21 06 07 08 09 0A 0B 0C 
   111)     41198.756 1  Rx        07E8 -  8    22 0D 0E 0F 10 11 12 13 
   112)     41209.508 1  Rx        07E8 -  8    23 14 15 16 17 18 19 55 
   113)     41219.193 1  Rx        07E0 -  8    06 19 06 A1 B2 B3 12 55 
   114)     41223.161 1  Rx        07E8 -  8    10 1A 59 19 02 03 04 05 
   115)     41224.057 1  Rx        07E0 -  8    30 0A 0A 55 55 55 55 55 
   116)     41234.852 1  Rx        07E8 -  8    21 06 07 08 09 0A 0B 0C 
   117)     41245.561 1  Rx        07E8 -  8    22 0D 0E 0F 10 11 12 13 
   118)     41256.355 1  Rx        07E8 -  8    23 14 15 16 17 18 19 55 
   119)     41268.003 1  Rx        07E0 -  8    04 19 07 F1 12 55 55 55 
   120)     41271.971 1  Rx        07E8 -  8    10 1A 59 19 02 03 04 05 
   121)     41272.782 1  Rx        07E0 -  8    30 0A 0A 55 55 55 55 55 
   122)     41283.704 1  Rx        07E8 -  8    21 06 07 08 09 0A 0B 0C 
   123)     41294.371 1  Rx        07E8 -  8    22 0D 0E 0F 10 11 12 13 
   124)     41305.080 1  Rx        07E8 -  8    23 14 15 16 17 18 19 55 
   125)     41320.738 1  Rx        07E0 -  8    05 19 09 A1 B2 B3 55 55 
   126)     41326.626 1  Rx        07E8 -  8    10 1A 59 19 02 03 04 05 
   127)     41327.565 1  Rx        07E0 -  8    30 0A 0A 55 55 55 55 55 
   128)     41338.274 1  Rx        07E8 -  8    21 06 07 08 09 0A 0B 0C 
   129)     41348.983 1  Rx        07E8 -  8    22 0D 0E 0F 10 11 12 13 
   130)     41359.692 1  Rx        07E8 -  8    23 14 15 16 17 18 19 55 
   131)     41381.239 1  Rx        07E0 -  8    02 19 0A 55 55 55 55 55 
   132)     41389.089 1  Rx        07E8 -  8    10 1A 59 19 02 03 04 05 
   133)     41389.900 1  Rx        07E0 -  8    30 0A 0A 55 55 55 55 55 
   134)     41400.780 1  Rx        07E8 -  8    21 06 07 08 09 0A 0B 0C 
   135)     41411.489 1  Rx        07E8 -  8    22 0D 0E 0F 10 11 12 13 
   136)     41422.198 1  Rx        07E8 -  8    23 14 15 16 17 18 19 55 
   137)     41449.632 1  Rx        07E0 -  8    10 12 2F F1 95 41 42 43 
   138)     41450.486 1  Rx        07E8 -  8    30 0A 0A 55 55 55 55 55 
   139)     41461.238 1  Rx        07E0 -  8    21 44 45 46 47 48 49 4A 
   140)     41471.947 1  Rx        07E0 -  8    22 0A 0B 0C 0D 0E 55 55 
   141)     41478.859 1  Rx        07E8 -  8    03 6F F1 95 55 55 55 55 
   142)     41504.202 1  Rx        07E0 -  8    10 0E 31 03 F1 A2 41 42 
   143)     41505.056 1  Rx        07E8 -  8    30 0A 0A 55 55 55 55 55 
   144)     41515.893 1  Rx        07E0 -  8    21 43 44 45 46 47 48 49 
   145)     41526.602 1  Rx        07E0 -  8    22 4A 55 55 55 55 55 55 
   146)     41531.551 1  Rx        07E8 -  8    04 71 03 F1 A2 55 55 55 
   147)     41549.087 1  Rx        07E0 -  8    10 1A 34 12 8F 41 42 43 
   148)     41549.812 1  Rx        07E8 -  8    30 0A 0A 55 55 55 55 55 
   149)     41560.820 1  Rx        07E0 -  8    21 44 45 46 47 48 49 4A 
   150)     41571.529 1  Rx        07E0 -  8    22 4B 4C 4D 4E 4F 0A 0B 
   151)     41582.281 1  Rx        07E0 -  8    23 0C 0D 0E 0F 10 11 55 
   152)     41586.249 1  Rx        07E8 -  8    10 2A 74 F0 02 03 04 05 
   153)     41587.017 1  Rx        07E0 -  8    30 0A 0A 55 55 55 55 55 
   154)     41597.939 1  Rx        07E8 -  8    21 06 07 08 09 0A 0B 0C 
   155)     41608.606 1  Rx        07E8 -  8    22 0D 0E 0F 10 11 12 13 
   156)     41619.358 1  Rx        07E8 -  8    23 14 15 16 17 18 19 1A 
   157)     41630.110 1  Rx        07E8 -  8    24 1B 1C 1D 1E 1F 20 21 
   158)     41640.861 1  Rx        07E8 -  8    25 22 23 24 25 26 27 28 
   159)     41651.528 1  Rx        07E8 -  8    26 29 55 55 55 55 55 55 
   160)     41672.093 1  Rx        07E0 -  8    10 38 35 12 05 41 42 43 
   161)     41672.904 1  Rx        07E8 -  8    30 0A 0A 55 55 55 55 55 
   162)     41683.783 1  Rx        07E0 -  8    21 44 45 46 47 48 49 4A 
   163)     41694.493 1  Rx        07E0 -  8    22 4B 4C 4D 4E 4F 50 51 
   164)     41705.244 1  Rx        07E0 -  8    23 52 53 54 55 0A 0B 0C 
   165)     41715.996 1  Rx        07E0 -  8    24 0D 0E 0F 10 11 12 13 
   166)     41726.705 1  Rx        07E0 -  8    25 14 15 16 17 18 19 1A 
   167)     41737.457 1  Rx        07E0 -  8    26 1B 1C 1D 1E 1F 20 21 
   168)     41748.209 1  Rx        07E0 -  8    27 22 23 24 25 26 27 28 
   169)     41758.918 1  Rx        07E0 -  8    28 29 55 55 55 55 55 55 
   170)     41763.825 1  Rx        07E8 -  8    10 0C 75 F0 02 03 04 05 
   171)     41764.593 1  Rx        07E0 -  8    30 0A 0A 55 55 55 55 55 
   172)     41775.601 1  Rx        07E8 -  8    21 06 07 08 09 0A 0B 55 
   173)     41787.248 1  Rx        07E0 -  8    10 34 36 01 41 42 43 44 
   174)     41788.059 1  Rx        07E8 -  8    30 0A 0A 55 55 55 55 55 
   175)     41798.939 1  Rx        07E0 -  8    21 45 46 47 48 49 4A 4B 
   176)     41809.733 1  Rx        07E0 -  8    22 4C 4D 4E 4F 50 51 52 
   177)     41820.485 1  Rx        07E0 -  8    23 53 54 55 56 57 58 59 
   178)     41831.152 1  Rx        07E0 -  8    24 5A 5B 5C 5D 5E 5F 60 
   179)     41841.904 1  Rx        07E0 -  8    25 61 62 63 64 65 66 67 
   180)     41852.698 1  Rx        07E0 -  8    26 68 69 6A 6B 6C 6D 6E 
   181)     41863.365 1  Rx        07E0 -  8    27 6F 70 71 72 55 55 55 
   182)     41867.333 1  Rx        07E8 -  8    10 36 76 01 02 03 04 05 
   183)     41868.271 1  Rx        07E0 -  8    30 0A 0A 55 55 55 55 55 
   184)     41879.023 1  Rx        07E8 -  8    21 06 07 08 09 0A 0B 0C 
   185)     41889.775 1  Rx        07E8 -  8    22 0D 0E 0F 10 11 12 13 
   186)     41900.484 1  Rx        07E8 -  8    23 14 15 16 17 18 19 1A 
   187)     41911.199 1  Rx        07E8 -  8    24 1B 1C 1D 1E 1F 20 21 
   188)     41921.951 1  Rx        07E8 -  8    25 22 23 24 25 26 27 28 
   189)     41932.703 1  Rx        07E8 -  8    26 29 2A 2B 2C 2D 2E 2F 
   190)     41943.497 1  Rx        07E8 -  8    27 30 31 32 33 34 35 55 
   191)     41960.990 1  Rx        07E0 -  8    10 15 37 41 42 43 44 45 
   192)     41961.758 1  Rx        07E8 -  8    30 0A 0A 55 55 55 55 55 
   193)     41972.681 1  Rx        07E0 -  8    21 46 47 48 49 4A 4B 4C 
   194)     41983.390 1  Rx        07E0 -  8    22 4D 4E 4F 50 51 52 53 
   195)     41994.142 1  Rx        07E0 -  8    23 54 55 55 55 55 55 55 
   196)     42000.072 1  Rx        07E8 -  8    10 16 77 01 02 03 04 05 
   197)     42001.011 1  Rx        07E0 -  8    30 0A 0A 55 55 55 55 55 
   198)     42011.763 1  Rx        07E8 -  8    21 06 07 08 09 0A 0B 0C 
   199)     42022.472 1  Rx        07E8 -  8    22 0D 0E 0F 10 11 12 13 
   200)     42033.224 1  Rx        07E8 -  8    23 14 15 55 55 55 55 55 
   201)     42046.920 1  Rx        07E0 -  8    1F FF 36 01 41 42 43 44 
   202)     42047.688 1  Rx        07E8 -  8    30 0A 0A 55 55 55 55 55 
   203)     42058.610 1  Rx        07E0 -  8    21 45 46 47 48 49 4A 4B 
   204)     42069.319 1  Rx        07E0 -  8    22 4C 4D 4E 4F 50 51 52 
   205)     42080.114 1  Rx        07E0 -  8    23 53 54 55 56 57 58 59 
   206)     42090.780 1  Rx        07E0 -  8    24 5A 5B 5C 5D 5E 5F 60 
   207)     42101.660 1  Rx        07E0 -  8    25 61 62 63 64 65 66 67 
   208)     42112.241 1  Rx        07E0 -  8    26 68 69 6A 6B 6C 6D 6E 
   209)     42123.079 1  Rx        07E0 -  8    27 6F 70 71 72 73 74 75 
   210)     42133.788 1  Rx        07E0 -  8    28 76 77 78 79 7A 7B 7C 
   211)     42144.497 1  Rx        07E0 -  8    29 7D 7E 7F 80 81 82 83 
   212)     42155.163 1  Rx        07E0 -  8    2A 84 85 86 87 88 89 8A 
   213)     42155.931 1  Rx        07E8 -  8    30 0A 0A 55 55 55 55 55 
   214)     42166.939 1  Rx        07E0 -  8    2B 8B 8C 8D 8E 8F 90 91 
   215)     42177.648 1  Rx        07E0 -  8    2C 92 93 94 95 96 97 98 
   216)     42188.358 1  Rx        07E0 -  8    2D 99 9A 9B 9C 9D 9E 9F 
   217)     42199.152 1  Rx        07E0 -  8    2E A0 A1 A2 A3 A4 A5 A6 
   218)     42209.904 1  Rx        07E0 -  8    2F A7 A8 A9 AA AB AC AD 
   219)     42220.613 1  Rx        07E0 -  8    20 AE AF B0 B1 B2 B3 B4 
   220)     42231.365 1  Rx        07E0 -  8    21 B5 B6 B7 B8 B9 BA BB 
   221)     42242.117 1  Rx        07E0 -  8    22 BC BD BE BF C0 C1 C2 
   222)     42252.783 1  Rx        07E0 -  8    23 C3 C4 C5 C6 C7 C8 C9 
   223)     42263.620 1  Rx        07E0 -  8    24 CA CB CC CD CE CF D0 
   224)     42264.431 1  Rx        07E8 -  8    30 0A 0A 55 55 55 55 55 
   225)     42275.268 1  Rx        07E0 -  8    25 D1 D2 D3 D4 D5 D6 D7 
   226)     42285.977 1  Rx        07E0 -  8    26 D8 D9 DA DB DC DD DE 
   227)     42296.729 1  Rx        07E0 -  8    27 DF E0 E1 E2 E3 E4 E5 
   228)     42307.481 1  Rx        07E0 -  8    28 E6 E7 E8 E9 EA EB EC 
   229)     42318.190 1  Rx        07E0 -  8    29 ED EE EF F0 F1 F2 F3 
   230)     42328.985 1  Rx        07E0 -  8    2A F4 F5 F6 F7 F8 F9 FA 
   231)     42339.779 1  Rx        07E0 -  8    2B FB FC FD FE FF 00 01 
   232)     42350.403 1  Rx        07E0 -  8    2C 02 03 04 05 06 07 08 
   233)     42361.155 1  Rx        07E0 -  8    2D 09 0A 0B 0C 0D 0E 0F 
   234)     42371.864 1  Rx        07E0 -  8    2E 10 11 12 13 14 15 16 
   235)     42372.632 1  Rx        07E8 -  8    30 0A 0A 55 55 55 55 55 
   236)     42383.640 1  Rx        07E0 -  8    2F 17 18 19 1A 1B 1C 1D 
   237)     42394.392 1  Rx        07E0 -  8    20 1E 1F 20 21 22 23 24 
   238)     42405.101 1  Rx        07E0 -  8    21 25 26 27 28 29 2A 2B 
   239)     42415.810 1  Rx        07E0 -  8    22 2C 2D 2E 2F 30 31 32 
   240)     42426.562 1  Rx        07E0 -  8    23 33 34 35 36 37 38 39 
   241)     42437.271 1  Rx        07E0 -  8    24 3A 3B 3C 3D 3E 3F 40 
   242)     42448.065 1  Rx        07E0 -  8    25 41 42 43 44 45 46 47 
   243)     42458.732 1  Rx        07E0 -  8    26 48 49 4A 4B 4C 4D 4E 
   244)     42469.484 1  Rx        07E0 -  8    27 4F 50 51 52 53 54 55 
   245)     42480.236 1  Rx        07E0 -  8    28 56 57 58 59 5A 5B 5C 
   246)     42481.004 1  Rx        07E8 -  8    30 0A 0A 55 55 55 55 55 
   247)     42491.926 1  Rx        07E0 -  8    29 5D 5E 5F 60 61 62 63 
   248)     42502.678 1  Rx        07E0 -  8    2A 64 65 66 67 68 69 6A 
   249)     42513.387 1  Rx        07E0 -  8    2B 6B 6C 6D 6E 6F 70 71 
   250)     42524.096 1  Rx        07E0 -  8    2C 72 73 74 75 76 77 78 
   251)     42534.891 1  Rx        07E0 -  8    2D 79 7A 7B 7C 7D 7E 7F 
   252)     42545.643 1  Rx        07E0 -  8    2E 80 81 82 83 84 85 86 
   253)     42556.394 1  Rx        07E0 -  8    2F 87 88 89 8A 8B 8C 8D 
   254)     42567.104 1  Rx        07E0 -  8    20 8E 8F 90 91 92 93 94 
   255)     42577.813 1  Rx        07E0 -  8    21 95 96 97 98 99 9A 9B 
   256)     42588.565 1  Rx        07E0 -  8    22 9C 9D 9E 9F A0 A1 A2 
   257)     42589.375 1  Rx        07E8 -  8    30 0A 0A 55 55 55 55 55 
   258)     42600.255 1  Rx        07E0 -  8    23 A3 A4 A5 A6 A7 A8 A9 
   259)     42611.007 1  Rx        07E0 -  8    24 AA AB AC AD AE AF B0 
   260)     42621.759 1  Rx        07E0 -  8    25 B1 B2 B3 B4 B5 B6 B7 
   261)     42632.468 1  Rx        07E0 -  8    26 B8 B9 BA BB BC BD BE 
   262)     42643.262 1  Rx        07E0 -  8    27 BF C0 C1 C2 C3 C4 C5 
   263)     42653.972 1  Rx        07E0 -  8    28 C6 C7 C8 C9 CA CB CC 
   264)     42664.766 1  Rx        07E0 -  8    29 CD CE CF D0 D1 D2 D3 
   265)     42675.433 1  Rx        07E0 -  8    2A D4 D5 D6 D7 D8 D9 DA 
   266)     42686.142 1  Rx        07E0 -  8    2B DB DC DD DE DF E0 E1 
   267)     42696.894 1  Rx        07E0 -  8    2C E2 E3 E4 E5 E6 E7 E8 
   268)     42697.619 1  Rx        07E8 -  8    30 0A 0A 55 55 55 55 55 
   269)     42708.584 1  Rx        07E0 -  8    2D E9 EA EB EC ED EE EF 
   270)     42719.336 1  Rx        07E0 -  8    2E F0 F1 F2 F3 F4 F5 F6 
   271)     42730.130 1  Rx        07E0 -  8    2F F7 F8 F9 FA FB FC FD 
   272)     42740.840 1  Rx        07E0 -  8    20 FE FF 00 01 02 03 04 
   273)     42751.549 1  Rx        07E0 -  8    21 05 06 07 08 09 0A 0B 
   274)     42762.301 1  Rx        07E0 -  8    22 0C 0D 0E 0F 10 11 12 
   275)     42773.052 1  Rx        07E0 -  8    23 13 14 15 16 17 18 19 
   276)     42783.804 1  Rx        07E0 -  8    24 1A 1B 1C 1D 1E 1F 20 
   277)     42794.471 1  Rx        07E0 -  8    25 21 22 23 24 25 26 27 
   278)     42805.265 1  Rx        07E0 -  8    26 28 29 2A 2B 2C 2D 2E 
   279)     42806.204 1  Rx        07E8 -  8    30 0A 0A 55 55 55 55 55 
   280)     42816.913 1  Rx        07E0 -  8    27 2F 30 31 32 33 34 35 
   281)     42827.708 1  Rx        07E0 -  8    28 36 37 38 39 3A 3B 3C 
   282)     42838.459 1  Rx        07E0 -  8    29 3D 3E 3F 40 41 42 43 
   283)     42849.126 1  Rx        07E0 -  8    2A 44 45 46 47 48 49 4A 
   284)     42859.920 1  Rx        07E0 -  8    2B 4B 4C 4D 4E 4F 50 51 
   285)     42870.630 1  Rx        07E0 -  8    2C 52 53 54 55 56 57 58 
   286)     42881.381 1  Rx        07E0 -  8    2D 59 5A 5B 5C 5D 5E 5F 
   287)     42892.133 1  Rx        07E0 -  8    2E 60 61 62 63 64 65 66 
   288)     42902.842 1  Rx        07E0 -  8    2F 67 68 69 6A 6B 6C 6D 
   289)     42913.594 1  Rx        07E0 -  8    20 6E 6F 70 71 72 73 74 
   290)     42914.362 1  Rx        07E8 -  8    30 0A 0A 55 55 55 55 55 
   291)     42925.285 1  Rx        07E0 -  8    21 75 76 77 78 79 7A 7B 
   292)     42936.036 1  Rx        07E0 -  8    22 7C 7D 7E 7F 80 81 82 
   293)     42946.746 1  Rx        07E0 -  8    23 83 84 85 86 87 88 89 
   294)     42957.560 1  Rx        07E0 -  8    24 8A 8B 8C 8D 8E 8F 90 
   295)     42968.312 1  Rx        07E0 -  8    25 91 92 93 94 95 96 97 
   296)     42979.021 1  Rx        07E0 -  8    26 98 99 9A 9B 9C 9D 9E 
   297)     42989.730 1  Rx        07E0 -  8    27 9F A0 A1 A2 A3 A4 A5 
   298)     43000.439 1  Rx        07E0 -  8    28 A6 A7 A8 A9 AA AB AC 
   299)     43011.234 1  Rx        07E0 -  8    29 AD AE AF B0 B1 B2 B3 
   300)     43021.986 1  Rx        07E0 -  8    2A B4 B5 B6 B7 B8 B9 BA 
   301)     43022.882 1  Rx        07E8 -  8    30 0A 0A 55 55 55 55 55 
   302)     43033.719 1  Rx        07E0 -  8    2B BB BC BD BE BF C0 C1 
   303)     43044.428 1  Rx        07E0 -  8    2C C2 C3 C4 C5 C6 C7 C8 
   304)     43055.137 1  Rx        07E0 -  8    2D C9 CA CB CC CD CE CF 
   305)     43065.846 1  Rx        07E0 -  8    2E D0 D1 D2 D3 D4 D5 D6 
   306)     43076.641 1  Rx        07E0 -  8    2F D7 D8 D9 DA DB DC DD 
   307)     43087.307 1  Rx        07E0 -  8    20 DE DF E0 E1 E2 E3 E4 
   308)     43098.145 1  Rx        07E0 -  8    21 E5 E6 E7 E8 E9 EA EB 
   309)     43108.896 1  Rx        07E0 -  8    22 EC ED EE EF F0 F1 F2 
   310)     43119.520 1  Rx        07E0 -  8    23 F3 F4 F5 F6 F7 F8 F9 
   311)     43130.315 1  Rx        07E0 -  8    24 FA FB FC FD FE FF 00 
   312)     43131.680 1  Rx        07E8 -  8    30 0A 0A 55 55 55 55 55 
   313)     43142.176 1  Rx        07E0 -  8    25 01 02 03 04 05 06 07 
   314)     43152.757 1  Rx        07E0 -  8    26 08 09 0A 0B 0C 0D 0E 
   315)     43163.466 1  Rx        07E0 -  8    27 0F 10 11 12 13 14 15 
   316)     43174.261 1  Rx        07E0 -  8    28 16 17 18 19 1A 1B 1C 
   317)     43184.927 1  Rx        07E0 -  8    29 1D 1E 1F 20 21 22 23 
   318)     43195.636 1  Rx        07E0 -  8    2A 24 25 26 27 28 29 2A 
   319)     43206.431 1  Rx        07E0 -  8    2B 2B 2C 2D 2E 2F 30 31 
   320)     43217.183 1  Rx        07E0 -  8    2C 32 33 34 35 36 37 38 
   321)     43227.977 1  Rx        07E0 -  8    2D 39 3A 3B 3C 3D 3E 3F 
   322)     43238.644 1  Rx        07E0 -  8    2E 40 41 42 43 44 45 46 
   323)     43239.540 1  Rx        07E8 -  8    30 0A 0A 55 55 55 55 55 
   324)     43250.334 1  Rx        07E0 -  8    2F 47 48 49 4A 4B 4C 4D 
   325)     43261.171 1  Rx        07E0 -  8    20 4E 4F 50 51 52 53 54 
   326)     43271.838 1  Rx        07E0 -  8    21 55 56 57 58 59 5A 5B 
   327)     43282.547 1  Rx        07E0 -  8    22 5C 5D 5E 5F 60 61 62 
   328)     43293.299 1  Rx        07E0 -  8    23 63 64 65 66 67 68 69 
   329)     43304.051 1  Rx        07E0 -  8    24 6A 6B 6C 6D 6E 6F 70 
   330)     43314.760 1  Rx        07E0 -  8    25 71 72 73 74 75 76 77 
   331)     43325.469 1  Rx        07E0 -  8    26 78 79 7A 7B 7C 7D 7E 
   332)     43336.221 1  Rx        07E0 -  8    27 7F 80 81 82 83 84 85 
   333)     43346.930 1  Rx        07E0 -  8    28 86 87 88 89 8A 8B 8C 
   334)     43347.741 1  Rx        07E8 -  8    30 0A 0A 55 55 55 55 55 
   335)     43358.663 1  Rx        07E0 -  8    29 8D 8E 8F 90 91 92 93 
   336)     43369.372 1  Rx        07E0 -  8    2A 94 95 96 97 98 99 9A 
   337)     43380.167 1  Rx        07E0 -  8    2B 9B 9C 9D 9E 9F A0 A1 
   338)     43390.876 1  Rx        07E0 -  8    2C A2 A3 A4 A5 A6 A7 A8 
   339)     43401.585 1  Rx        07E0 -  8    2D A9 AA AB AC AD AE AF 
   340)     43412.337 1  Rx        07E0 -  8    2E B0 B1 B2 B3 B4 B5 B6 
   341)     43423.046 1  Rx        07E0 -  8    2F B7 B8 B9 BA BB BC BD 
   342)     43433.841 1  Rx        07E0 -  8    20 BE BF C0 C1 C2 C3 C4 
   343)     43444.593 1  Rx        07E0 -  8    21 C5 C6 C7 C8 C9 CA CB 
   344)     43455.302 1  Rx        07E0 -  8    22 CC CD CE CF D0 D1 D2 
   345)     43456.155 1  Rx        07E8 -  8    30 0A 0A 55 55 55 55 55 
   346)     43467.035 1  Rx        07E0 -  8    23 D3 D4 D5 D6 D7 D8 D9 
   347)     43477.744 1  Rx        07E0 -  8    24 DA DB DC DD DE DF E0 
   348)     43488.496 1  Rx        07E0 -  8    25 E1 E2 E3 E4 E5 E6 E7 
   349)     43499.205 1  Rx        07E0 -  8    26 E8 E9 EA EB EC ED EE 
   350)     43510.000 1  Rx        07E0 -  8    27 EF F0 F1 F2 F3 F4 F5 
   351)     43520.666 1  Rx        07E0 -  8    28 F6 F7 F8 F9 FA FB FC 
   352)     43531.461 1  Rx        07E0 -  8    29 FD FE FF 00 01 02 03 
   353)     43542.170 1  Rx        07E0 -  8    2A 04 05 06 07 08 09 0A 
   354)     43552.922 1  Rx        07E0 -  8    2B 0B 0C 0D 0E 0F 10 11 
   355)     43563.631 1  Rx        07E0 -  8    2C 12 13 14 15 16 17 18 
   356)     43564.399 1  Rx        07E8 -  8    30 0A 0A 55 55 55 55 55 
   357)     43575.364 1  Rx        07E0 -  8    2D 19 1A 1B 1C 1D 1E 1F 
   358)     43586.073 1  Rx        07E0 -  8    2E 20 21 22 23 24 25 26 
   359)     43596.825 1  Rx        07E0 -  8    2F 27 28 29 2A 2B 2C 2D 
   360)     43607.577 1  Rx        07E0 -  8    20 2E 2F 30 31 32 33 34 
   361)     43618.286 1  Rx        07E0 -  8    21 35 36 37 38 39 3A 3B 
   362)     43629.038 1  Rx        07E0 -  8    22 3C 3D 3E 3F 40 41 42 
   363)     43639.747 1  Rx        07E0 -  8    23 43 44 45 46 47 48 49 
   364)     43650.499 1  Rx        07E0 -  8    24 4A 4B 4C 4D 4E 4F 50 
   365)     43661.251 1  Rx        07E0 -  8    25 51 52 53 54 55 56 57 
   366)     43671.960 1  Rx        07E0 -  8    26 58 59 5A 5B 5C 5D 5E 
   367)     43672.728 1  Rx        07E8 -  8    30 0A 0A 55 55 55 55 55 
   368)     43683.650 1  Rx        07E0 -  8    27 5F 60 61 62 63 64 65 
   369)     43694.402 1  Rx        07E0 -  8    28 66 67 68 69 6A 6B 6C 
   370)     43705.196 1  Rx        07E0 -  8    29 6D 6E 6F 70 71 72 73 
   371)     43715.906 1  Rx        07E0 -  8    2A 74 75 76 77 78 79 7A 
   372)     43726.700 1  Rx        07E0 -  8    2B 7B 7C 7D 7E 7F 80 81 
   373)     43737.409 1  Rx        07E0 -  8    2C 82 83 84 85 86 87 88 
   374)     43748.161 1  Rx        07E0 -  8    2D 89 8A 8B 8C 8D 8E 8F 
   375)     43758.785 1  Rx        07E0 -  8    2E 90 91 92 93 94 95 96 
   376)     43769.622 1  Rx        07E0 -  8    2F 97 98 99 9A 9B 9C 9D 
   377)     43780.374 1  Rx        07E0 -  8    20 9E 9F A0 A1 A2 A3 A4 
   378)     43781.227 1  Rx        07E8 -  8    30 0A 0A 55 55 55 55 55 
   379)     43792.064 1  Rx        07E0 -  8    21 A5 A6 A7 A8 A9 AA AB 
   380)     43802.816 1  Rx        07E0 -  8    22 AC AD AE AF B0 B1 B2 
   381)     43813.483 1  Rx        07E0 -  8    23 B3 B4 B5 B6 B7 B8 B9 
   382)     43824.277 1  Rx        07E0 -  8    24 BA BB BC BD BE BF C0 
   383)     43834.986 1  Rx        07E0 -  8    25 C1 C2 C3 C4 C5 C6 C7 
   384)     43845.738 1  Rx        07E0 -  8    26 C8 C9 CA CB CC CD CE 
   385)     43856.447 1  Rx        07E0 -  8    27 CF D0 D1 D2 D3 D4 D5 
   386)     43867.199 1  Rx        07E0 -  8    28 D6 D7 D8 D9 DA DB DC 
   387)     43877.994 1  Rx        07E0 -  8    29 DD DE DF E0 E1 E2 E3 
   388)     43888.703 1  Rx        07E0 -  8    2A E4 E5 E6 E7 E8 E9 EA 
   389)     43889.514 1  Rx        07E8 -  8    30 0A 0A 55 55 55 55 55 
   390)     43900.351 1  Rx        07E0 -  8    2B EB EC ED EE EF F0 F1 
   391)     43911.145 1  Rx        07E0 -  8    2C F2 F3 F4 F5 F6 F7 F8 
   392)     43921.897 1  Rx        07E0 -  8    2D F9 FA FB FC FD FE FF 
   393)     43932.606 1  Rx        07E0 -  8    2E 00 01 02 03 04 05 06 
   394)     43943.315 1  Rx        07E0 -  8    2F 07 08 09 0A 0B 0C 0D 
   395)     43954.025 1  Rx        07E0 -  8    20 0E 0F 10 11 12 13 14 
   396)     43964.819 1  Rx        07E0 -  8    21 15 16 17 18 19 1A 1B 
   397)     43975.486 1  Rx        07E0 -  8    22 1C 1D 1E 1F 20 21 22 
   398)     43986.237 1  Rx        07E0 -  8    23 23 24 25 26 27 28 29 
   399)     43997.032 1  Rx        07E0 -  8    24 2A 2B 2C 2D 2E 2F 30 
   400)     43997.785 1  Rx        07E8 -  8    30 0A 0A 55 55 55 55 55 
   401)     44008.665 1  Rx        07E0 -  8    25 31 32 33 34 35 36 37 
   402)     44019.374 1  Rx        07E0 -  8    26 38 39 3A 3B 3C 3D 3E 
   403)     44030.126 1  Rx        07E0 -  8    27 3F 40 41 42 43 44 45 
   404)     44040.878 1  Rx        07E0 -  8    28 46 47 48 49 4A 4B 4C 
   405)     44051.587 1  Rx        07E0 -  8    29 4D 4E 4F 50 51 52 53 
   406)     44062.339 1  Rx        07E0 -  8    2A 54 55 56 57 58 59 5A 
   407)     44073.091 1  Rx        07E0 -  8    2B 5B 5C 5D 5E 5F 60 61 
   408)     44083.757 1  Rx        07E0 -  8    2C 62 63 64 65 66 67 68 
   409)     44094.466 1  Rx        07E0 -  8    2D 69 6A 6B 6C 6D 6E 6F 
   410)     44105.346 1  Rx        07E0 -  8    2E 70 71 72 73 74 75 76 
   411)     44106.498 1  Rx        07E8 -  8    30 0A 0A 55 55 55 55 55 
   412)     44117.037 1  Rx        07E0 -  8    2F 77 78 79 7A 7B 7C 7D 
   413)     44127.874 1  Rx        07E0 -  8    20 7E 7F 80 81 82 83 84 
   414)     44138.626 1  Rx        07E0 -  8    21 85 86 87 88 89 8A 8B 
   415)     44149.122 1  Rx        07E0 -  8    22 8C 8D 8E 8F 90 91 92 
   416)     44159.873 1  Rx        07E0 -  8    23 93 94 95 96 97 98 99 
   417)     44170.625 1  Rx        07E0 -  8    24 9A 9B 9C 9D 9E 9F A0 
   418)     44181.420 1  Rx        07E0 -  8    25 A1 A2 A3 A4 A5 A6 A7 
   419)     44192.129 1  Rx        07E0 -  8    26 A8 A9 AA AB AC AD AE 
   420)     44202.838 1  Rx        07E0 -  8    27 AF B0 B1 B2 B3 B4 B5 
   421)     44213.590 1  Rx        07E0 -  8    28 B6 B7 B8 B9 BA BB BC 
   422)     44214.443 1  Rx        07E8 -  8    30 0A 0A 55 55 55 55 55 
   423)     44225.323 1  Rx        07E0 -  8    29 BD BE BF C0 C1 C2 C3 
   424)     44236.075 1  Rx        07E0 -  8    2A C4 C5 C6 C7 C8 C9 CA 
   425)     44246.699 1  Rx        07E0 -  8    2B CB CC CD CE CF D0 D1 
   426)     44257.493 1  Rx        07E0 -  8    2C D2 D3 D4 D5 D6 D7 D8 
   427)     44268.202 1  Rx        07E0 -  8    2D D9 DA DB DC DD DE DF 
   428)     44278.954 1  Rx        07E0 -  8    2E E0 E1 E2 E3 E4 E5 E6 
   429)     44289.749 1  Rx        07E0 -  8    2F E7 E8 E9 EA EB EC ED 
   430)     44300.501 1  Rx        07E0 -  8    20 EE EF F0 F1 F2 F3 F4 
   431)     44311.252 1  Rx        07E0 -  8    21 F5 F6 F7 F8 F9 FA FB 
   432)     44322.004 1  Rx        07E0 -  8    22 FC FD FE FF 00 01 02 
   433)     44322.815 1  Rx        07E8 -  8    30 0A 0A 55 55 55 55 55 
   434)     44333.695 1  Rx        07E0 -  8    23 03 04 05 06 07 08 09 
   435)     44344.404 1  Rx        07E0 -  8    24 0A 0B 0C 0D 0E 0F 10 
   436)     44355.113 1  Rx        07E0 -  8    25 11 12 13 14 15 16 17 
   437)     44365.865 1  Rx        07E0 -  8    26 18 19 1A 1B 1C 1D 1E 
   438)     44376.574 1  Rx        07E0 -  8    27 1F 20 21 22 23 24 25 
   439)     44387.368 1  Rx        07E0 -  8    28 26 27 28 29 2A 2B 2C 
   440)     44397.992 1  Rx        07E0 -  8    29 2D 2E 2F 30 31 32 33 
   441)     44408.829 1  Rx        07E0 -  8    2A 34 35 36 37 38 39 3A 
   442)     44419.539 1  Rx        07E0 -  8    2B 3B 3C 3D 3E 3F 40 41 
   443)     44430.290 1  Rx        07E0 -  8    2C 42 43 44 45 46 47 48 
   444)     44431.229 1  Rx        07E8 -  8    30 0A 0A 55 55 55 55 55 
   445)     44442.024 1  Rx        07E0 -  8    2D 49 4A 4B 4C 4D 4E 4F 
   446)     44452.690 1  Rx        07E0 -  8    2E 50 51 52 53 54 55 56 
   447)     44463.485 1  Rx        07E0 -  8    2F 57 58 59 5A 5B 5C 5D 
   448)     44474.194 1  Rx        07E0 -  8    20 5E 5F 60 61 62 63 64 
   449)     44484.903 1  Rx        07E0 -  8    21 65 66 67 68 69 6A 6B 
   450)     44495.655 1  Rx        07E0 -  8    22 6C 6D 6E 6F 70 71 72 
   451)     44506.449 1  Rx        07E0 -  8    23 73 74 75 76 77 78 79 
   452)     44517.158 1  Rx        07E0 -  8    24 7A 7B 7C 7D 7E 7F 80 
   453)     44527.910 1  Rx        07E0 -  8    25 81 82 83 84 85 86 87 
   454)     44538.662 1  Rx        07E0 -  8    26 88 89 8A 8B 8C 8D 8E 
   455)     44539.430 1  Rx        07E8 -  8    30 0A 0A 55 55 55 55 55 
   456)     44550.310 1  Rx        07E0 -  8    27 8F 90 91 92 93 94 95 
   457)     44561.019 1  Rx        07E0 -  8    28 96 97 98 99 9A 9B 9C 
   458)     44571.814 1  Rx        07E0 -  8    29 9D 9E 9F A0 A1 A2 A3 
   459)     44582.480 1  Rx        07E0 -  8    2A A4 A5 A6 A7 A8 A9 AA 
   460)     44593.275 1  Rx        07E0 -  8    2B AB AC AD AE AF B0 B1 
   461)     44604.026 1  Rx        07E0 -  8    2C B2 B3 B4 B5 B6 B7 B8 
   462)     44614.736 1  Rx        07E0 -  8    2D B9 BA BB BC BD BE BF 
   463)     44625.487 1  Rx        07E0 -  8    2E C0 C1 C2 C3 C4 C5 C6 
   464)     44636.239 1  Rx        07E0 -  8    2F C7 C8 C9 CA CB CC CD 
   465)     44646.948 1  Rx        07E0 -  8    20 CE CF D0 D1 D2 D3 D4 
   466)     44647.716 1  Rx        07E8 -  8    30 0A 0A 55 55 55 55 55 
   467)     44658.682 1  Rx        07E0 -  8    21 D5 D6 D7 D8 D9 DA DB 
   468)     44669.391 1  Rx        07E0 -  8    22 DC DD DE DF E0 E1 E2 
   469)     44680.143 1  Rx        07E0 -  8    23 E3 E4 E5 E6 E7 E8 E9 
   470)     44690.852 1  Rx        07E0 -  8    24 EA EB EC ED EE EF F0 
   471)     44701.604 1  Rx        07E0 -  8    25 F1 F2 F3 F4 F5 F6 F7 
   472)     44712.398 1  Rx        07E0 -  8    26 F8 F9 FA FB FC FD FE 
   473)     44723.107 1  Rx        07E0 -  8    27 FF 00 01 02 03 04 05 
   474)     44733.816 1  Rx        07E0 -  8    28 06 07 08 09 0A 0B 0C 
   475)     44744.568 1  Rx        07E0 -  8    29 0D 0E 0F 10 11 12 13 
   476)     44755.363 1  Rx        07E0 -  8    2A 14 15 16 17 18 19 1A 
   477)     44756.259 1  Rx        07E8 -  8    30 0A 0A 55 55 55 55 55 
   478)     44767.011 1  Rx        07E0 -  8    2B 1B 1C 1D 1E 1F 20 21 
   479)     44777.762 1  Rx        07E0 -  8    2C 22 23 24 25 26 27 28 
   480)     44788.514 1  Rx        07E0 -  8    2D 29 2A 2B 2C 2D 2E 2F 
   481)     44799.223 1  Rx        07E0 -  8    2E 30 31 32 33 34 35 36 
   482)     44809.933 1  Rx        07E0 -  8    2F 37 38 39 3A 3B 3C 3D 
   483)     44820.684 1  Rx        07E0 -  8    20 3E 3F 40 41 42 43 44 
   484)     44831.394 1  Rx        07E0 -  8    21 45 46 47 48 49 4A 4B 
   485)     44842.145 1  Rx        07E0 -  8    22 4C 4D 4E 4F 50 51 52 
   486)     44852.897 1  Rx        07E0 -  8    23 53 54 55 56 57 58 59 
   487)     44863.606 1  Rx        07E0 -  8    24 5A 5B 5C 5D 5E 5F 60 
   488)     44864.374 1  Rx        07E8 -  8    30 0A 0A 55 55 55 55 55 
   489)     44875.340 1  Rx        07E0 -  8    25 61 62 63 64 65 66 67 
   490)     44886.049 1  Rx        07E0 -  8    26 68 69 6A 6B 6C 6D 6E 
   491)     44896.843 1  Rx        07E0 -  8    27 6F 70 71 72 73 74 75 
   492)     44907.552 1  Rx        07E0 -  8    28 76 77 78 79 7A 7B 7C 
   493)     44918.304 1  Rx        07E0 -  8    29 7D 7E 7F 80 81 82 83 
   494)     44929.013 1  Rx        07E0 -  8    2A 84 85 86 87 88 89 8A 
   495)     44939.723 1  Rx        07E0 -  8    2B 8B 8C 8D 8E 8F 90 91 
   496)     44950.560 1  Rx        07E0 -  8    2C 92 93 94 95 96 97 98 
   497)     44961.269 1  Rx        07E0 -  8    2D 99 9A 9B 9C 9D 9E 9F 
   498)     44971.978 1  Rx        07E0 -  8    2E A0 A1 A2 A3 A4 A5 A6 
   499)     44972.831 1  Rx        07E8 -  8    30 0A 0A 55 55 55 55 55 
   500)     44983.711 1  Rx        07E0 -  8    2F A7 A8 A9 AA AB AC AD 
   501)     44994.463 1  Rx        07E0 -  8    20 AE AF B0 B1 B2 B3 B4 
   502)     45005.130 1  Rx        07E0 -  8    21 B5 B6 B7 B8 B9 BA BB 
   503)     45015.924 1  Rx        07E0 -  8    22 BC BD BE BF C0 C1 C2 
   504)     45026.633 1  Rx        07E0 -  8    23 C3 C4 C5 C6 C7 C8 C9 
   505)     45037.385 1  Rx        07E0 -  8    24 CA CB CC CD CE CF D0 
   506)     45048.043 1  Rx        07E0 -  8    25 D1 D2 D3 D4 D5 D6 D7 
   507)     45058.795 1  Rx        07E0 -  8    26 D8 D9 DA DB DC DD DE 
   508)     45069.461 1  Rx        07E0 -  8    27 DF E0 E1 E2 E3 E4 E5 
   509)     45080.341 1  Rx        07E0 -  8    28 E6 E7 E8 E9 EA EB EC 
   510)     45081.152 1  Rx        07E8 -  8    30 0A 0A 55 55 55 55 55 
   511)     45091.989 1  Rx        07E0 -  8    29 ED EE EF F0 F1 F2 F3 
   512)     45102.698 1  Rx        07E0 -  8    2A F4 F5 F6 F7 F8 F9 FA 
   513)     45113.535 1  Rx        07E0 -  8    2B FB FC FD FE FF 00 01 
   514)     45124.287 1  Rx        07E0 -  8    2C 02 03 04 05 06 07 08 
   515)     45135.252 1  Rx        07E0 -  8    2D 09 0A 0B 0C 0D 0E 0F 
   516)     45145.620 1  Rx        07E0 -  8    2E 10 11 12 13 14 15 16 
   517)     45156.372 1  Rx        07E0 -  8    2F 17 18 19 1A 1B 1C 1D 
   518)     45167.124 1  Rx        07E0 -  8    20 1E 1F 20 21 22 23 24 
   519)     45177.833 1  Rx        07E0 -  8    21 25 26 27 28 29 2A 2B 
   520)     45188.628 1  Rx        07E0 -  8    22 2C 2D 2E 2F 30 31 32 
   521)     45189.396 1  Rx        07E8 -  8    30 0A 0A 55 55 55 55 55 
   522)     45200.318 1  Rx        07E0 -  8    23 33 34 35 36 37 38 39 
   523)     45211.027 1  Rx        07E0 -  8    24 3A 3B 3C 3D 3E 3F 40 
   524)     45221.736 1  Rx        07E0 -  8    25 41 42 43 44 45 46 47 
   525)     45232.488 1  Rx        07E0 -  8    26 48 49 4A 4B 4C 4D 4E 
   526)     45243.240 1  Rx        07E0 -  8    27 4F 50 51 52 53 54 55 
   527)     45253.992 1  Rx        07E0 -  8    28 56 57 58 59 5A 5B 5C 
   528)     45264.658 1  Rx        07E0 -  8    29 5D 5E 5F 60 61 62 63 
   529)     45275.453 1  Rx        07E0 -  8    2A 64 65 66 67 68 69 6A 
   530)     45286.162 1  Rx        07E0 -  8    2B 6B 6C 6D 6E 6F 70 71 
   531)     45296.999 1  Rx        07E0 -  8    2C 72 73 74 75 76 77 78 
   532)     45297.810 1  Rx        07E8 -  8    30 0A 0A 55 55 55 55 55 
   533)     45308.690 1  Rx        07E0 -  8    2D 79 7A 7B 7C 7D 7E 7F 
   534)     45319.399 1  Rx        07E0 -  8    2E 80 81 82 83 84 85 86 
   535)     45330.151 1  Rx        07E0 -  8    2F 87 88 89 8A 8B 8C 8D 
   536)     45340.903 1  Rx        07E0 -  8    20 8E 8F 90 91 92 93 94 
   537)     45351.569 1  Rx        07E0 -  8    21 95 96 97 98 99 9A 9B 
   538)     45362.321 1  Rx        07E0 -  8    22 9C 9D 9E 9F A0 A1 A2 
   539)     45373.030 1  Rx        07E0 -  8    23 A3 A4 A5 A6 A7 A8 A9 
   540)     45383.782 1  Rx        07E0 -  8    24 AA AB AC AD AE AF B0 
   541)     45394.534 1  Rx        07E0 -  8    25 B1 B2 B3 B4 B5 B6 B7 
   542)     45405.243 1  Rx        07E0 -  8    26 B8 B9 BA BB BC BD BE 
   543)     45406.011 1  Rx        07E8 -  8    30 0A 0A 55 55 55 55 55 
   544)     45416.037 1  Rx        07E0 -  8    27 BF C0 C1 C2 C3 C4 C5 
   545)     45426.704 1  Rx        07E0 -  8    28 C6 C7 C8 C9 CA CB CC 
   546)     45437.456 1  Rx        07E0 -  8    29 CD CE CF D0 D1 D2 D3 
   547)     45448.208 1  Rx        07E0 -  8    2A D4 D5 D6 D7 D8 D9 DA 
   548)     45458.917 1  Rx        07E0 -  8    2B DB DC DD DE DF E0 E1 
   549)     45469.669 1  Rx        07E0 -  8    2C E2 E3 E4 E5 E6 E7 E8 
   550)     45480.420 1  Rx        07E0 -  8    2D E9 EA EB EC ED EE EF 
   551)     45491.215 1  Rx        07E0 -  8    2E F0 F1 F2 F3 F4 F5 F6 
   552)     45501.924 1  Rx        07E0 -  8    2F F7 F8 F9 FA FB FC FD 
   553)     45512.633 1  Rx        07E0 -  8    20 FE FF 00 01 02 03 04 
   554)     45513.529 1  Rx        07E8 -  8    30 0A 0A 55 55 55 55 55 
   555)     45524.366 1  Rx        07E0 -  8    21 05 06 07 08 09 0A 0B 
   556)     45535.118 1  Rx        07E0 -  8    22 0C 0D 0E 0F 10 11 12 
   557)     45545.785 1  Rx        07E0 -  8    23 13 14 15 16 17 18 19 
   558)     45556.537 1  Rx        07E0 -  8    24 1A 1B 1C 1D 1E 1F 20 
   559)     45567.246 1  Rx        07E0 -  8    25 21 22 23 24 25 26 27 
   560)     45577.998 1  Rx        07E0 -  8    26 28 29 2A 2B 2C 2D 2E 
   561)     45588.749 1  Rx        07E0 -  8    27 2F 30 31 32 33 34 35 
   562)     45599.459 1  Rx        07E0 -  8    28 36 37 38 39 3A 3B 3C 
   563)     45610.210 1  Rx        07E0 -  8    29 3D 3E 3F 40 41 42 43 
   564)     45620.962 1  Rx        07E0 -  8    2A 44 45 46 47 48 49 4A 
   565)     45621.986 1  Rx        07E8 -  8    30 0A 0A 55 55 55 55 55 
   566)     45632.695 1  Rx        07E0 -  8    2B 4B 4C 4D 4E 4F 50 51 
   567)     45643.447 1  Rx        07E0 -  8    2C 52 53 54 55 56 57 58 
   568)     45654.156 1  Rx        07E0 -  8    2D 59 5A 5B 5C 5D 5E 5F 
   569)     45664.866 1  Rx        07E0 -  8    2E 60 61 62 63 64 65 66 
   570)     45675.617 1  Rx        07E0 -  8    2F 67 68 69 6A 6B 6C 6D 
   571)     45686.369 1  Rx        07E0 -  8    20 6E 6F 70 71 72 73 74 
   572)     45697.078 1  Rx        07E0 -  8    21 75 76 77 78 79 7A 7B 
   573)     45707.830 1  Rx        07E0 -  8    22 7C 7D 7E 7F 80 81 82 
   574)     45718.539 1  Rx        07E0 -  8    23 83 84 85 86 87 88 89 
   575)     45729.334 1  Rx        07E0 -  8    24 8A 8B 8C 8D 8E 8F 90 
   576)     45730.145 1  Rx        07E8 -  8    30 0A 0A 55 55 55 55 55 
   577)     45741.067 1  Rx        07E0 -  8    25 91 92 93 94 95 96 97 
   578)     45751.776 1  Rx        07E0 -  8    26 98 99 9A 9B 9C 9D 9E 
   579)     45762.571 1  Rx        07E0 -  8    27 9F A0 A1 A2 A3 A4 A5 
   580)     45773.194 1  Rx        07E0 -  8    28 A6 A7 A8 A9 AA AB AC 
   581)     45783.989 1  Rx        07E0 -  8    29 AD AE AF B0 B1 B2 B3 
   582)     45794.698 1  Rx        07E0 -  8    2A B4 B5 B6 B7 B8 B9 BA 
   583)     45805.450 1  Rx        07E0 -  8    2B BB BC BD BE BF C0 C1 
   584)     45816.116 1  Rx        07E0 -  8    2C C2 C3 C4 C5 C6 C7 C8 
   585)     45826.911 1  Rx        07E0 -  8    2D C9 CA CB CC CD CE CF 
   586)     45837.620 1  Rx        07E0 -  8    2E D0 D1 D2 D3 D4 D5 D6 
   587)     45838.388 1  Rx        07E8 -  8    30 0A 0A 55 55 55 55 55 
   588)     45848.415 1  Rx        07E0 -  8    2F D7 D8 D9 DA DB DC DD 
   589)     45859.166 1  Rx        07E0 -  8    20 DE DF E0 E1 E2 E3 E4 
   590)     45869.876 1  Rx        07E0 -  8    21 E5 E6 E7 E8 E9 EA EB 
   591)     45880.585 1  Rx        07E0 -  8    22 EC ED EE EF F0 F1 F2 
   592)     45891.379 1  Rx        07E0 -  8    23 F3 F4 F5 F6 F7 F8 F9 
   593)     45902.088 1  Rx        07E0 -  8    24 FA FB FC FD FE FF 00 
   594)     45912.840 1  Rx        07E0 -  8    25 01 02 03 04 05 06 07 
   595)     45923.549 1  Rx        07E0 -  8    26 08 09 0A 0B 0C 0D 0E 
   596)     45934.259 1  Rx        07E0 -  8    27 0F 10 11 12 13 14 15 
   597)     45945.010 1  Rx        07E0 -  8    28 16 17 18 19 1A 1B 1C 
   598)     45945.778 1  Rx        07E8 -  8    30 0A 0A 55 55 55 55 55 
   599)     45955.805 1  Rx        07E0 -  8    29 1D 1E 1F 20 21 22 23 
   600)     45966.471 1  Rx        07E0 -  8    2A 24 25 26 27 28 29 2A 
   601)     45977.223 1  Rx        07E0 -  8    2B 2B 2C 2D 2E 2F 30 31 
   602)     45987.932 1  Rx        07E0 -  8    2C 32 33 34 35 36 37 38 
   603)     45998.727 1  Rx        07E0 -  8    2D 39 3A 3B 3C 3D 3E 3F 
   604)     46009.393 1  Rx        07E0 -  8    2E 40 41 42 43 44 45 46 
   605)     46020.145 1  Rx        07E0 -  8    2F 47 48 49 4A 4B 4C 4D 
   606)     46030.897 1  Rx        07E0 -  8    20 4E 4F 50 51 52 53 54 
   607)     46041.649 1  Rx        07E0 -  8    21 55 56 57 58 59 5A 5B 
   608)     46052.401 1  Rx        07E0 -  8    22 5C 5D 5E 5F 60 61 62 
   609)     46053.297 1  Rx        07E8 -  8    30 0A 0A 55 55 55 55 55 
   610)     46064.091 1  Rx        07E0 -  8    23 63 64 65 66 67 68 69 
   611)     46074.800 1  Rx        07E0 -  8    24 6A 6B 6C 6D 6E 6F 70 
   612)     46085.510 1  Rx        07E0 -  8    25 71 72 73 74 75 76 77 
   613)     46096.318 1  Rx        07E0 -  8    26 78 79 7A 7B 7C 7D 7E 
   614)     46107.113 1  Rx        07E0 -  8    27 7F 80 81 82 83 84 85 
   615)     46117.779 1  Rx        07E0 -  8    28 86 87 88 89 8A 8B 8C 
   616)     46128.488 1  Rx        07E0 -  8    29 8D 8E 8F 90 91 92 93 
   617)     46139.240 1  Rx        07E0 -  8    2A 94 95 96 97 98 99 9A 
   618)     46149.907 1  Rx        07E0 -  8    2B 9B 9C 9D 9E 9F A0 A1 
   619)     46160.744 1  Rx        07E0 -  8    2C A2 A3 A4 A5 A6 A7 A8 
   620)     46161.640 1  Rx        07E8 -  8    30 0A 0A 55 55 55 55 55 
   621)     46172.434 1  Rx        07E0 -  8    2D A9 AA AB AC AD AE AF 
   622)     46183.143 1  Rx        07E0 -  8    2E B0 B1 B2 B3 B4 B5 B6 
   623)     46193.938 1  Rx        07E0 -  8    2F B7 B8 B9 BA BB BC BD 
   624)     46204.690 1  Rx        07E0 -  8    20 BE BF C0 C1 C2 C3 C4 
   625)     46215.356 1  Rx        07E0 -  8    21 C5 C6 C7 C8 C9 CA CB 
   626)     46226.108 1  Rx        07E0 -  8    22 CC CD CE CF D0 D1 D2 
   627)     46236.860 1  Rx        07E0 -  8    23 D3 D4 D5 D6 D7 D8 D9 
   628)     46247.612 1  Rx        07E0 -  8    24 DA DB DC DD DE DF E0 
   629)     46258.321 1  Rx        07E0 -  8    25 E1 E2 E3 E4 E5 E6 E7 
   630)     46269.073 1  Rx        07E0 -  8    26 E8 E9 EA EB EC ED EE 
   631)     46269.883 1  Rx        07E8 -  8    30 0A 0A 55 55 55 55 55 
   632)     46280.763 1  Rx        07E0 -  8    27 EF F0 F1 F2 F3 F4 F5 
   633)     46291.600 1  Rx        07E0 -  8    28 F6 F7 F8 F9 FA FB FC 
   634)     46302.267 1  Rx        07E0 -  8    29 FD FE FF 00 01 02 03 
   635)     46313.061 1  Rx        07E0 -  8    2A 04 05 06 07 08 09 0A 
   636)     46323.728 1  Rx        07E0 -  8    2B 0B 0C 0D 0E 0F 10 11 
   637)     46334.480 1  Rx        07E0 -  8    2C 12 13 14 15 16 17 18 
   638)     46345.146 1  Rx        07E0 -  8    2D 19 1A 1B 1C 1D 1E 1F 
   639)     46355.898 1  Rx        07E0 -  8    2E 20 21 22 23 24 25 26 
   640)     46366.650 1  Rx        07E0 -  8    2F 27 28 29 2A 2B 2C 2D 
   641)     46377.359 1  Rx        07E0 -  8    20 2E 2F 30 31 32 33 34 
   642)     46378.127 1  Rx        07E8 -  8    30 0A 0A 55 55 55 55 55 
   643)     46388.111 1  Rx        07E0 -  8    21 35 36 37 38 39 3A 3B 
   644)     46398.905 1  Rx        07E0 -  8    22 3C 3D 3E 3F 40 41 42 
   645)     46409.657 1  Rx        07E0 -  8    23 43 44 45 46 47 48 49 
   646)     46420.324 1  Rx        07E0 -  8    24 4A 4B 4C 4D 4E 4F 50 
   647)     46431.076 1  Rx        07E0 -  8    25 51 52 53 54 55 56 57 
   648)     46441.785 1  Rx        07E0 -  8    26 58 59 5A 5B 5C 5D 5E 
   649)     46452.537 1  Rx        07E0 -  8    27 5F 60 61 62 63 64 65 
   650)     46463.288 1  Rx        07E0 -  8    28 66 67 68 69 6A 6B 6C 
   651)     46473.998 1  Rx        07E0 -  8    29 6D 6E 6F 70 71 72 73 
   652)     46484.749 1  Rx        07E0 -  8    2A 74 75 76 77 78 79 7A 
   653)     46485.517 1  Rx        07E8 -  8    30 0A 0A 55 55 55 55 55 
   654)     46495.544 1  Rx        07E0 -  8    2B 7B 7C 7D 7E 7F 80 81 
   655)     46506.253 1  Rx        07E0 -  8    2C 82 83 84 85 86 87 88 
   656)     46516.962 1  Rx        07E0 -  8    2D 89 8A 8B 8C 8D 8E 8F 
   657)     46527.714 1  Rx        07E0 -  8    2E 90 91 92 93 94 95 96 
   658)     46538.423 1  Rx        07E0 -  8    2F 97 98 99 9A 9B 9C 9D 
   659)     46549.175 1  Rx        07E0 -  8    20 9E 9F A0 A1 A2 A3 A4 
   660)     46559.884 1  Rx        07E0 -  8    21 A5 A6 A7 A8 A9 AA AB 
   661)     46570.636 1  Rx        07E0 -  8    22 AC AD AE AF B0 B1 B2 
   662)     46581.388 1  Rx        07E0 -  8    23 B3 B4 B5 B6 B7 B8 B9 
   663)     46592.140 1  Rx        07E0 -  8    24 BA BB BC BD BE BF C0 
   664)     46592.950 1  Rx        07E8 -  8    30 0A 0A 55 55 55 55 55 
   665)     46602.849 1  Rx        07E0 -  8    25 C1 C2 C3 C4 C5 C6 C7 
   666)     46613.601 1  Rx        07E0 -  8    26 C8 C9 CA CB CC CD CE 
   667)     46624.353 1  Rx        07E0 -  8    27 CF D0 D1 D2 D3 D4 D5 
   668)     46635.104 1  Rx        07E0 -  8    28 D6 D7 D8 D9 DA DB DC 
   669)     46645.814 1  Rx        07E0 -  8    29 DD DE DF E0 E1 E2 E3 
   670)     46656.523 1  Rx        07E0 -  8    2A E4 E5 E6 E7 E8 E9 EA 
   671)     46667.275 1  Rx        07E0 -  8    2B EB EC ED EE EF F0 F1 
   672)     46678.026 1  Rx        07E0 -  8    2C F2 F3 F4 F5 F6 F7 F8 
   673)     46688.736 1  Rx        07E0 -  8    2D F9 FA FB FC FD FE FF 
   674)     46699.530 1  Rx        07E0 -  8    2E 00 01 02 03 04 05 06 
   675)     46700.298 1  Rx        07E8 -  8    30 0A 0A 55 55 55 55 55 
   676)     46710.197 1  Rx        07E0 -  8    2F 07 08 09 0A 0B 0C 0D 
   677)     46720.991 1  Rx        07E0 -  8    20 0E 0F 10 11 12 13 14 
   678)     46731.700 1  Rx        07E0 -  8    21 15 16 17 18 19 1A 1B 
   679)     46742.452 1  Rx        07E0 -  8    22 1C 1D 1E 1F 20 21 22 
   680)     46753.161 1  Rx        07E0 -  8    23 23 24 25 26 27 28 29 
   681)     46763.998 1  Rx        07E0 -  8    24 2A 2B 2C 2D 2E 2F 30 
   682)     46774.622 1  Rx        07E0 -  8    25 31 32 33 34 35 36 37 
   683)     46785.417 1  Rx        07E0 -  8    26 38 39 3A 3B 3C 3D 3E 
   684)     46796.126 1  Rx        07E0 -  8    27 3F 40 41 42 43 44 45 
   685)     46806.920 1  Rx        07E0 -  8    28 46 47 48 49 4A 4B 4C 
   686)     46807.731 1  Rx        07E8 -  8    30 0A 0A 55 55 55 55 55 
   687)     46817.544 1  Rx        07E0 -  8    29 4D 4E 4F 50 51 52 53 
   688)     46828.296 1  Rx        07E0 -  8    2A 54 55 56 57 58 59 5A 
   689)     46839.048 1  Rx        07E0 -  8    2B 5B 5C 5D 5E 5F 60 61 
   690)     46849.842 1  Rx        07E0 -  8    2C 62 63 64 65 66 67 68 
   691)     46860.552 1  Rx        07E0 -  8    2D 69 6A 6B 6C 6D 6E 6F 
   692)     46871.303 1  Rx        07E0 -  8    2E 70 71 72 73 74 75 76 
   693)     46882.013 1  Rx        07E0 -  8    2F 77 78 79 7A 7B 7C 7D 
   694)     46892.764 1  Rx        07E0 -  8    20 7E 7F 80 81 82 83 84 
   695)     46903.474 1  Rx        07E0 -  8    21 85 86 87 88 89 8A 8B 
   696)     46914.225 1  Rx        07E0 -  8    22 8C 8D 8E 8F 90 91 92 
   697)     46914.993 1  Rx        07E8 -  8    30 0A 0A 55 55 55 55 55 
   698)     46924.977 1  Rx        07E0 -  8    23 93 94 95 96 97 98 99 
   699)     46935.217 1  Rx        07E0 -  8    24 9A 9B 9C 9D 9E 9F A0 
   700)     46945.457 1  Rx        07E0 -  8    25 A1 A2 A3 A4 A5 A6 A7 
   701)     46956.209 1  Rx        07E0 -  8    26 A8 A9 AA AB AC AD AE 
   702)     46966.918 1  Rx        07E0 -  8    27 AF B0 B1 B2 B3 B4 B5 
   703)     46977.670 1  Rx        07E0 -  8    28 B6 B7 B8 B9 BA BB BC 
   704)     46988.379 1  Rx        07E0 -  8    29 BD BE BF C0 C1 C2 C3 
   705)     46999.131 1  Rx        07E0 -  8    2A C4 C5 C6 C7 C8 C9 CA 
   706)     47009.925 1  Rx        07E0 -  8    2B CB CC CD CE CF D0 D1 
   707)     47020.677 1  Rx        07E0 -  8    2C D2 D3 D4 D5 D6 D7 D8 
   708)     47021.530 1  Rx        07E8 -  8    30 0A 0A 55 55 55 55 55 
   709)     47032.325 1  Rx        07E0 -  8    2D D9 DA DB DC DD DE DF 
   710)     47043.077 1  Rx        07E0 -  8    2E E0 E1 E2 E3 E4 E5 E6 
   711)     47053.956 1  Rx        07E0 -  8    2F E7 E8 E9 EA EB EC ED 
   712)     47064.538 1  Rx        07E0 -  8    20 EE EF F0 F1 F2 F3 F4 
   713)     47075.332 1  Rx        07E0 -  8    21 F5 F6 F7 F8 F9 FA FB 
   714)     47085.956 1  Rx        07E0 -  8    22 FC FD FE FF 00 01 02 
   715)     47096.750 1  Rx        07E0 -  8    23 03 04 05 06 07 08 09 
   716)     47107.545 1  Rx        07E0 -  8    24 0A 0B 0C 0D 0E 0F 10 
   717)     47118.169 1  Rx        07E0 -  8    25 11 12 13 14 15 16 17 
   718)     47129.219 1  Rx        07E0 -  8    26 18 19 1A 1B 1C 1D 1E 
   719)     47130.371 1  Rx        07E8 -  8    30 0A 0A 55 55 55 55 55 
   720)     47140.782 1  Rx        07E0 -  8    27 1F 20 21 22 23 24 25 
   721)     47151.397 1  Rx        07E0 -  8    28 26 27 28 29 2A 2B 2C 
   722)     47162.148 1  Rx        07E0 -  8    29 2D 2E 2F 30 31 32 33 
   723)     47172.900 1  Rx        07E0 -  8    2A 34 35 36 37 38 39 3A 
   724)     47183.609 1  Rx        07E0 -  8    2B 3B 3C 3D 3E 3F 40 41 
   725)     47194.361 1  Rx        07E0 -  8    2C 42 43 44 45 46 47 48 
   726)     47205.028 1  Rx        07E0 -  8    2D 49 4A 4B 4C 4D 4E 4F 
   727)     47215.780 1  Rx        07E0 -  8    2E 50 51 52 53 54 55 56 
   728)     47226.489 1  Rx        07E0 -  8    2F 57 58 59 5A 5B 5C 5D 
   729)     47236.302 1  Rx        07E0 -  8    20 5E 5F 60 61 62 63 64 
   730)     47237.070 1  Rx        07E8 -  8    30 0A 0A 55 55 55 55 55 
   731)     47247.054 1  Rx        07E0 -  8    21 65 66 67 68 69 6A 6B 
   732)     47257.806 1  Rx        07E0 -  8    22 6C 6D 6E 6F 70 71 72 
   733)     47268.515 1  Rx        07E0 -  8    23 73 74 75 76 77 78 79 
   734)     47279.267 1  Rx        07E0 -  8    24 7A 7B 7C 7D 7E 7F 80 
   735)     47290.061 1  Rx        07E0 -  8    25 81 82 83 84 85 86 87 
   736)     47300.728 1  Rx        07E0 -  8    26 88 89 8A 8B 8C 8D 8E 
   737)     47311.437 1  Rx        07E0 -  8    27 8F 90 91 92 93 94 95 
   738)     47321.250 1  Rx        07E0 -  8    28 96 97 98 99 9A 9B 9C 
   739)     47331.959 1  Rx        07E0 -  8    29 9D 9E 9F A0 A1 A2 A3 
   740)     47342.668 1  Rx        07E0 -  8    2A A4 A5 A6 A7 A8 A9 AA 
   741)     47343.436 1  Rx        07E8 -  8    30 0A 0A 55 55 55 55 55 
   742)     47353.420 1  Rx        07E0 -  8    2B AB AC AD AE AF B0 B1 
   743)     47363.233 1  Rx        07E0 -  8    2C B2 B3 B4 B5 B6 B7 B8 
   744)     47373.942 1  Rx        07E0 -  8    2D B9 BA BB BC BD BE BF 
   745)     47384.652 1  Rx        07E0 -  8    2E C0 C1 C2 C3 C4 C5 C6 
   746)     47395.403 1  Rx        07E0 -  8    2F C7 C8 C9 CA CB CC CD 
   747)     47406.113 1  Rx        07E0 -  8    20 CE CF D0 D1 D2 D3 D4 
   748)     47415.926 1  Rx        07E0 -  8    21 D5 D6 D7 D8 D9 DA DB 
   749)     47425.654 1  Rx        07E0 -  8    22 DC DD DE DF E0 E1 E2 
   750)     47435.382 1  Rx        07E0 -  8    23 E3 E4 E5 E6 E7 E8 E9 
   751)     47446.133 1  Rx        07E0 -  8    24 EA EB EC ED EE EF F0 
   752)     47446.987 1  Rx        07E8 -  8    30 0A 0A 55 55 55 55 55 
   753)     47456.928 1  Rx        07E0 -  8    25 F1 F2 F3 F4 F5 F6 F7 
   754)     47466.613 1  Rx        07E0 -  8    26 F8 F9 FA FB FC FD FE 
   755)     47476.426 1  Rx        07E0 -  8    27 FF 00 01 02 03 04 05 
   756)     47486.197 1  Rx        07E0 -  8    28 06 07 08 09 0A 0B 0C 
   757)     47495.925 1  Rx        07E0 -  8    29 0D 0E 0F 10 11 12 13 
   758)     47505.652 1  Rx        07E0 -  8    2A 14 15 16 17 18 19 1A 
   759)     47515.466 1  Rx        07E0 -  8    2B 1B 1C 1D 1E 1F 20 21 
   760)     47525.279 1  Rx        07E0 -  8    2C 22 23 24 25 26 27 28 
   761)     47535.945 1  Rx        07E0 -  8    2D 29 2A 2B 2C 2D 2E 2F 
   762)     47545.716 1  Rx        07E0 -  8    2E 30 31 32 33 34 35 36 
   763)     47546.526 1  Rx        07E8 -  8    30 0A 0A 55 55 55 55 55 
   764)     47556.425 1  Rx        07E0 -  8    2F 37 38 39 3A 3B 3C 3D 
   765)     47566.195 1  Rx        07E0 -  8    20 3E 3F 40 41 42 43 44 
   766)     47575.923 1  Rx        07E0 -  8    21 45 46 47 48 49 4A 4B 
   767)     47585.694 1  Rx        07E0 -  8    22 4C 4D 4E 4F 50 51 52 
   768)     47595.507 1  Rx        07E0 -  8    23 53 54 55 56 57 58 59 
   769)     47605.278 1  Rx        07E0 -  8    24 5A 5B 5C 5D 5E 5F 60 
   770)     47615.944 1  Rx        07E0 -  8    25 61 62 63 64 65 66 67 
   771)     47625.715 1  Rx        07E0 -  8    26 68 69 6A 6B 6C 6D 6E 
   772)     47635.485 1  Rx        07E0 -  8    27 6F 70 71 72 73 74 75 
   773)     47645.213 1  Rx        07E0 -  8    28 76 77 78 79 7A 7B 7C 
   774)     47646.066 1  Rx        07E8 -  8    30 0A 0A 55 55 55 55 55 
   775)     47656.050 1  Rx        07E0 -  8    29 7D 7E 7F 80 81 82 83 
   776)     47666.759 1  Rx        07E0 -  8    2A 84 85 86 87 88 89 8A 
   777)     47676.530 1  Rx        07E0 -  8    2B 8B 8C 8D 8E 8F 90 91 
   778)     47687.282 1  Rx        07E0 -  8    2C 92 93 94 95 96 97 98 
   779)     47697.991 1  Rx        07E0 -  8    2D 99 9A 9B 9C 9D 9E 9F 
   780)     47707.719 1  Rx        07E0 -  8    2E A0 A1 A2 A3 A4 A5 A6 
   781)     47717.489 1  Rx        07E0 -  8    2F A7 A8 A9 AA AB AC AD 
   782)     47727.260 1  Rx        07E0 -  8    20 AE AF B0 B1 B2 B3 B4 
   783)     47737.030 1  Rx        07E0 -  8    21 B5 B6 B7 B8 B9 BA BB 
   784)     47746.801 1  Rx        07E0 -  8    22 BC BD BE BF C0 C1 C2 
   785)     47747.611 1  Rx        07E8 -  8    30 0A 0A 55 55 55 55 55 
   786)     47757.467 1  Rx        07E0 -  8    23 C3 C4 C5 C6 C7 C8 C9 
   787)     47767.280 1  Rx        07E0 -  8    24 CA CB CC CD CE CF D0 
   788)     47777.008 1  Rx        07E0 -  8    25 D1 D2 D3 D4 D5 D6 D7 
   789)     47786.779 1  Rx        07E0 -  8    26 D8 D9 DA DB DC DD DE 
   790)     47796.549 1  Rx        07E0 -  8    27 DF E0 E1 E2 E3 E4 E5 
   791)     47806.320 1  Rx        07E0 -  8    28 E6 E7 E8 E9 EA EB EC 
   792)     47816.133 1  Rx        07E0 -  8    29 ED EE EF F0 F1 F2 F3 
   793)     47826.757 1  Rx        07E0 -  8    2A F4 F5 F6 F7 F8 F9 FA 
   794)     47836.613 1  Rx        07E0 -  8    2B FB FC FD FE FF 00 01 
   795)     47846.340 1  Rx        07E0 -  8    2C 02 03 04 05 06 07 08 
   796)     47847.151 1  Rx        07E8 -  8    30 0A 0A 55 55 55 55 55 
   797)     47857.007 1  Rx        07E0 -  8    2D 09 0A 0B 0C 0D 0E 0F 
   798)     47866.777 1  Rx        07E0 -  8    2E 10 11 12 13 14 15 16 
   799)     47876.548 1  Rx        07E0 -  8    2F 17 18 19 1A 1B 1C 1D 
   800)     47886.318 1  Rx        07E0 -  8    20 1E 1F 20 21 22 23 24 
   801)     47896.089 1  Rx        07E0 -  8    21 25 26 27 28 29 2A 2B 
   802)     47905.817 1  Rx        07E0 -  8    22 2C 2D 2E 2F 30 31 32 
   803)     47915.673 1  Rx        07E0 -  8    23 33 34 35 36 37 38 39 
   804)     47925.401 1  Rx        07E0 -  8    24 3A 3B 3C 3D 3E 3F 40 
   805)     47935.128 1  Rx        07E0 -  8    25 41 42 43 44 45 46 47 
   806)     47944.899 1  Rx        07E0 -  8    26 48 49 4A 4B 4C 4D 4E 
   807)     47945.752 1  Rx        07E8 -  8    30 0A 0A 55 55 55 55 55 
   808)     47955.608 1  Rx        07E0 -  8    27 4F 50 51 52 53 54 55 
   809)     47965.379 1  Rx        07E0 -  8    28 56 57 58 59 5A 5B 5C 
   810)     47975.149 1  Rx        07E0 -  8    29 5D 5E 5F 60 61 62 63 
   811)     47984.877 1  Rx        07E0 -  8    2A 64 65 66 67 68 69 6A 
   812)     47994.647 1  Rx        07E0 -  8    2B 6B 6C 6D 6E 6F 70 71 
   813)     48004.375 1  Rx        07E0 -  8    2C 72 73 74 75 76 77 78 
   814)     48014.188 1  Rx        07E0 -  8    2D 79 7A 7B 7C 7D 7E 7F 
   815)     48023.916 1  Rx        07E0 -  8    2E 80 81 82 83 84 85 86 
   816)     48033.730 1  Rx        07E0 -  8    2F 87 88 89 8A 8B 8C 8D 
   817)     48043.543 1  Rx        07E0 -  8    20 8E 8F 90 91 92 93 94 
   818)     48044.396 1  Rx        07E8 -  8    30 0A 0A 55 55 55 55 55 
   819)     48054.380 1  Rx        07E0 -  8    21 95 96 97 98 99 9A 9B 
   820)     48064.961 1  Rx        07E0 -  8    22 9C 9D 9E 9F A0 A1 A2 
   821)     48074.689 1  Rx        07E0 -  8    23 A3 A4 A5 A6 A7 A8 A9 
   822)     48084.417 1  Rx        07E0 -  8    24 AA AB AC AD AE AF B0 
   823)     48094.273 1  Rx        07E0 -  8    25 B1 B2 B3 B4 B5 B6 B7 
   824)     48104.214 1  Rx        07E0 -  8    26 B8 B9 BA BB BC BD BE 
   825)     48114.838 1  Rx        07E0 -  8    27 BF C0 C1 C2 C3 C4 C5 
   826)     48125.419 1  Rx        07E0 -  8    28 C6 C7 C8 C9 CA CB CC 
   827)     48136.768 1  Rx        07E0 -  8    29 CD CE CF D0 D1 D2 D3 
   828)     48147.093 1  Rx        07E0 -  8    2A D4 D5 D6 D7 D8 D9 DA 
   829)     48148.032 1  Rx        07E8 -  8    30 0A 0A 55 55 55 55 55 
   830)     48158.698 1  Rx        07E0 -  8    2B DB DC DD DE DF E0 E1 
   831)     48169.365 1  Rx        07E0 -  8    2C E2 E3 E4 E5 E6 E7 E8 
   832)     48179.178 1  Rx        07E0 -  8    2D E9 EA EB EC ED EE EF 
   833)     48188.906 1  Rx        07E0 -  8    2E F0 F1 F2 F3 F4 F5 F6 
   834)     48198.687 1  Rx        07E0 -  8    2F F7 F8 F9 FA FB FC FD 
   835)     48208.500 1  Rx        07E0 -  8    20 FE FF 00 01 02 03 04 
   836)     48218.186 1  Rx        07E0 -  8    21 05 06 07 08 09 0A 0B 
   837)     48227.956 1  Rx        07E0 -  8    22 0C 0D 0E 0F 10 11 12 
   838)     48237.769 1  Rx        07E0 -  8    23 13 14 15 16 17 18 19 
   839)     48248.478 1  Rx        07E0 -  8    24 1A 1B 1C 1D 1E 1F 20 
   840)     48249.289 1  Rx        07E8 -  8    30 0A 0A 55 55 55 55 55 
   841)     48259.188 1  Rx        07E0 -  8    25 21 22 23 24 25 26 27 
   842)     48268.958 1  Rx        07E0 -  8    26 28 29 2A 2B 2C 2D 2E 
   843)     48278.686 1  Rx        07E0 -  8    27 2F 30 31 32 33 34 35 
   844)     48288.499 1  Rx        07E0 -  8    28 36 37 38 39 3A 3B 3C 
   845)     48298.696 1  Rx        07E0 -  8    29 3D 55 55 55 55 55 55 
   846)     48362.695 1  Rx        07E8 -  8    1F FF 76 01 02 03 04 05 
   847)     48363.506 1  Rx        07E0 -  8    30 0A 0A 55 55 55 55 55 
   848)     48373.447 1  Rx        07E8 -  8    21 06 07 08 09 0A 0B 0C 
   849)     48384.156 1  Rx        07E8 -  8    22 0D 0E 0F 10 11 12 13 
   850)     48393.884 1  Rx        07E8 -  8    23 14 15 16 17 18 19 1A 
   851)     48403.740 1  Rx        07E8 -  8    24 1B 1C 1D 1E 1F 20 21 
   852)     48414.407 1  Rx        07E8 -  8    25 22 23 24 25 26 27 28 
   853)     48424.134 1  Rx        07E8 -  8    26 29 2A 2B 2C 2D 2E 2F 
   854)     48433.948 1  Rx        07E8 -  8    27 30 31 32 33 34 35 36 
   855)     48444.657 1  Rx        07E8 -  8    28 37 38 39 3A 3B 3C 3D 
   856)     48454.427 1  Rx        07E8 -  8    29 3E 3F 40 41 42 43 44 
   857)     48464.198 1  Rx        07E8 -  8    2A 45 46 47 48 49 4A 4B 
   858)     48464.966 1  Rx        07E0 -  8    30 0A 0A 55 55 55 55 55 
   859)     48474.907 1  Rx        07E8 -  8    2B 4C 4D 4E 4F 50 51 52 
   860)     48484.677 1  Rx        07E8 -  8    2C 53 54 55 56 57 58 59 
   861)     48494.448 1  Rx        07E8 -  8    2D 5A 5B 5C 5D 5E 5F 60 
   862)     48505.157 1  Rx        07E8 -  8    2E 61 62 63 64 65 66 67 
   863)     48514.885 1  Rx        07E8 -  8    2F 68 69 6A 6B 6C 6D 6E 
   864)     48524.698 1  Rx        07E8 -  8    20 6F 70 71 72 73 74 75 
   865)     48534.469 1  Rx        07E8 -  8    21 76 77 78 79 7A 7B 7C 
   866)     48544.197 1  Rx        07E8 -  8    22 7D 7E 7F 80 81 82 83 
   867)     48553.967 1  Rx        07E8 -  8    23 84 85 86 87 88 89 8A 
   868)     48563.695 1  Rx        07E8 -  8    24 8B 8C 8D 8E 8F 90 91 
   869)     48564.548 1  Rx        07E0 -  8    30 0A 0A 55 55 55 55 55 
   870)     48574.447 1  Rx        07E8 -  8    25 92 93 94 95 96 97 98 
   871)     48584.175 1  Rx        07E8 -  8    26 99 9A 9B 9C 9D 9E 9F 
   872)     48593.988 1  Rx        07E8 -  8    27 A0 A1 A2 A3 A4 A5 A6 
   873)     48603.758 1  Rx        07E8 -  8    28 A7 A8 A9 AA AB AC AD 
   874)     48614.467 1  Rx        07E8 -  8    29 AE AF B0 B1 B2 B3 B4 
   875)     48624.238 1  Rx        07E8 -  8    2A B5 B6 B7 B8 B9 BA BB 
   876)     48634.008 1  Rx        07E8 -  8    2B BC BD BE BF C0 C1 C2 
   877)     48643.736 1  Rx        07E8 -  8    2C C3 C4 C5 C6 C7 C8 C9 
   878)     48653.549 1  Rx        07E8 -  8    2D CA CB CC CD CE CF D0 
   879)     48663.235 1  Rx        07E8 -  8    2E D1 D2 D3 D4 D5 D6 D7 
   880)     48664.045 1  Rx        07E0 -  8    30 0A 0A 55 55 55 55 55 
   881)     48674.029 1  Rx        07E8 -  8    2F D8 D9 DA DB DC DD DE 
   882)     48684.781 1  Rx        07E8 -  8    20 DF E0 E1 E2 E3 E4 E5 
   883)     48694.552 1  Rx        07E8 -  8    21 E6 E7 E8 E9 EA EB EC 
   884)     48704.322 1  Rx        07E8 -  8    22 ED EE EF F0 F1 F2 F3 
   885)     48715.031 1  Rx        07E8 -  8    23 F4 F5 F6 F7 F8 F9 FA 
   886)     48724.759 1  Rx        07E8 -  8    24 FB FC FD FE FF 00 01 
   887)     48734.572 1  Rx        07E8 -  8    25 02 03 04 05 06 07 08 
   888)     48745.239 1  Rx        07E8 -  8    26 09 0A 0B 0C 0D 0E 0F 
   889)     48755.009 1  Rx        07E8 -  8    27 10 11 12 13 14 15 16 
   890)     48764.780 1  Rx        07E8 -  8    28 17 18 19 1A 1B 1C 1D 
   891)     48765.633 1  Rx        07E0 -  8    30 0A 0A 55 55 55 55 55 
   892)     48775.532 1  Rx        07E8 -  8    29 1E 1F 20 21 22 23 24 
   893)     48785.259 1  Rx        07E8 -  8    2A 25 26 27 28 29 2A 2B 
   894)     48795.073 1  Rx        07E8 -  8    2B 2C 2D 2E 2F 30 31 32 
   895)     48804.800 1  Rx        07E8 -  8    2C 33 34 35 36 37 38 39 
   896)     48815.552 1  Rx        07E8 -  8    2D 3A 3B 3C 3D 3E 3F 40 
   897)     48825.323 1  Rx        07E8 -  8    2E 41 42 43 44 45 46 47 
   898)     48835.051 1  Rx        07E8 -  8    2F 48 49 4A 4B 4C 4D 4E 
   899)     48844.821 1  Rx        07E8 -  8    20 4F 50 51 52 53 54 55 
   900)     48854.549 1  Rx        07E8 -  8    21 56 57 58 59 5A 5B 5C 
   901)     48864.320 1  Rx        07E8 -  8    22 5D 5E 5F 60 61 62 63 
   902)     48865.088 1  Rx        07E0 -  8    30 0A 0A 55 55 55 55 55 
   903)     48875.114 1  Rx        07E8 -  8    23 64 65 66 67 68 69 6A 
   904)     48884.842 1  Rx        07E8 -  8    24 6B 6C 6D 6E 6F 70 71 
   905)     48894.612 1  Rx        07E8 -  8    25 72 73 74 75 76 77 78 
   906)     48904.340 1  Rx        07E8 -  8    26 79 7A 7B 7C 7D 7E 7F 
   907)     48914.111 1  Rx        07E8 -  8    27 80 81 82 83 84 85 86 
   908)     48923.924 1  Rx        07E8 -  8    28 87 88 89 8A 8B 8C 8D 
   909)     48933.652 1  Rx        07E8 -  8    29 8E 8F 90 91 92 93 94 
   910)     48943.380 1  Rx        07E8 -  8    2A 95 96 97 98 99 9A 9B 
   911)     48953.150 1  Rx        07E8 -  8    2B 9C 9D 9E 9F A0 A1 A2 
   912)     48962.921 1  Rx        07E8 -  8    2C A3 A4 A5 A6 A7 A8 A9 
   913)     48963.817 1  Rx        07E0 -  8    30 0A 0A 55 55 55 55 55 
   914)     48973.672 1  Rx        07E8 -  8    2D AA AB AC AD AE AF B0 
   915)     48983.400 1  Rx        07E8 -  8    2E B1 B2 B3 B4 B5 B6 B7 
   916)     48993.128 1  Rx        07E8 -  8    2F B8 B9 BA BB BC BD BE 
   917)     49002.984 1  Rx        07E8 -  8    20 BF C0 C1 C2 C3 C4 C5 
   918)     49012.712 1  Rx        07E8 -  8    21 C6 C7 C8 C9 CA CB CC 
   919)     49022.482 1  Rx        07E8 -  8    22 CD CE CF D0 D1 D2 D3 
   920)     49032.210 1  Rx        07E8 -  8    23 D4 D5 D6 D7 D8 D9 DA 
   921)     49042.066 1  Rx        07E8 -  8    24 DB DC DD DE DF E0 E1 
   922)     49052.690 1  Rx        07E8 -  8    25 E2 E3 E4 E5 E6 E7 E8 
   923)     49062.503 1  Rx        07E8 -  8    26 E9 EA EB EC ED EE EF 
   924)     49063.314 1  Rx        07E0 -  8    30 0A 0A 55 55 55 55 55 
   925)     49073.170 1  Rx        07E8 -  8    27 F0 F1 F2 F3 F4 F5 F6 
   926)     49082.983 1  Rx        07E8 -  8    28 F7 F8 F9 FA FB FC FD 
   927)     49092.753 1  Rx        07E8 -  8    29 FE FF 00 01 02 03 04 
   928)     49102.609 1  Rx        07E8 -  8    2A 05 06 07 08 09 0A 0B 
   929)     49113.276 1  Rx        07E8 -  8    2B 0C 0D 0E 0F 10 11 12 
   930)     49123.942 1  Rx        07E8 -  8    2C 13 14 15 16 17 18 19 
   931)     49134.950 1  Rx        07E8 -  8    2D 1A 1B 1C 1D 1E 1F 20 
   932)     49145.446 1  Rx        07E8 -  8    2E 21 22 23 24 25 26 27 
   933)     49155.216 1  Rx        07E8 -  8    2F 28 29 2A 2B 2C 2D 2E 
   934)     49164.944 1  Rx        07E8 -  8    20 2F 30 31 32 33 34 35 
   935)     49165.797 1  Rx        07E0 -  8    30 0A 0A 55 55 55 55 55 
   936)     49175.739 1  Rx        07E8 -  8    21 36 37 38 39 3A 3B 3C 
   937)     49185.467 1  Rx        07E8 -  8    22 3D 3E 3F 40 41 42 43 
   938)     49195.152 1  Rx        07E8 -  8    23 44 45 46 47 48 49 4A 
   939)     49204.965 1  Rx        07E8 -  8    24 4B 4C 4D 4E 4F 50 51 
   940)     49214.735 1  Rx        07E8 -  8    25 52 53 54 55 56 57 58 
   941)     49224.463 1  Rx        07E8 -  8    26 59 5A 5B 5C 5D 5E 5F 
   942)     49234.234 1  Rx        07E8 -  8    27 60 61 62 63 64 65 66 
   943)     49243.943 1  Rx        07E8 -  8    28 67 68 69 6A 6B 6C 6D 
   944)     49253.799 1  Rx        07E8 -  8    29 6E 6F 70 71 72 73 74 
   945)     49264.423 1  Rx        07E8 -  8    2A 75 76 77 78 79 7A 7B 
   946)     49265.234 1  Rx        07E0 -  8    30 0A 0A 55 55 55 55 55 
   947)     49275.217 1  Rx        07E8 -  8    2B 7C 7D 7E 7F 80 81 82 
   948)     49284.988 1  Rx        07E8 -  8    2C 83 84 85 86 87 88 89 
   949)     49294.673 1  Rx        07E8 -  8    2D 8A 8B 8C 8D 8E 8F 90 
   950)     49304.486 1  Rx        07E8 -  8    2E 91 92 93 94 95 96 97 
   951)     49314.214 1  Rx        07E8 -  8    2F 98 99 9A 9B 9C 9D 9E 
   952)     49323.942 1  Rx        07E8 -  8    20 9F A0 A1 A2 A3 A4 A5 
   953)     49333.713 1  Rx        07E8 -  8    21 A6 A7 A8 A9 AA AB AC 
   954)     49343.568 1  Rx        07E8 -  8    22 AD AE AF B0 B1 B2 B3 
   955)     49353.296 1  Rx        07E8 -  8    23 B4 B5 B6 B7 B8 B9 BA 
   956)     49363.067 1  Rx        07E8 -  8    24 BB BC BD BE BF C0 C1 
   957)     49363.877 1  Rx        07E0 -  8    30 0A 0A 55 55 55 55 55 
   958)     49373.776 1  Rx        07E8 -  8    25 C2 C3 C4 C5 C6 C7 C8 
   959)     49383.504 1  Rx        07E8 -  8    26 C9 CA CB CC CD CE CF 
   960)     49393.317 1  Rx        07E8 -  8    27 D0 D1 D2 D3 D4 D5 D6 
   961)     49403.045 1  Rx        07E8 -  8    28 D7 D8 D9 DA DB DC DD 
   962)     49412.815 1  Rx        07E8 -  8    29 DE DF E0 E1 E2 E3 E4 
   963)     49422.543 1  Rx        07E8 -  8    2A E5 E6 E7 E8 E9 EA EB 
   964)     49432.356 1  Rx        07E8 -  8    2B EC ED EE EF F0 F1 F2 
   965)     49442.084 1  Rx        07E8 -  8    2C F3 F4 F5 F6 F7 F8 F9 
   966)     49451.940 1  Rx        07E8 -  8    2D FA FB FC FD FE FF 00 
   967)     49462.607 1  Rx        07E8 -  8    2E 01 02 03 04 05 06 07 
   968)     49463.417 1  Rx        07E0 -  8    30 0A 0A 55 55 55 55 55 
   969)     49473.358 1  Rx        07E8 -  8    2F 08 09 0A 0B 0C 0D 0E 
   970)     49484.110 1  Rx        07E8 -  8    20 0F 10 11 12 13 14 15 
   971)     49494.819 1  Rx        07E8 -  8    21 16 17 18 19 1A 1B 1C 
   972)     49504.590 1  Rx        07E8 -  8    22 1D 1E 1F 20 21 22 23 
   973)     49514.318 1  Rx        07E8 -  8    23 24 25 26 27 28 29 2A 
   974)     49524.131 1  Rx        07E8 -  8    24 2B 2C 2D 2E 2F 30 31 
   975)     49534.797 1  Rx        07E8 -  8    25 32 33 34 35 36 37 38 
   976)     49544.568 1  Rx        07E8 -  8    26 39 3A 3B 3C 3D 3E 3F 
   977)     49554.338 1  Rx        07E8 -  8    27 40 41 42 43 44 45 46 
   978)     49564.066 1  Rx        07E8 -  8    28 47 48 49 4A 4B 4C 4D 
   979)     49564.877 1  Rx        07E0 -  8    30 0A 0A 55 55 55 55 55 
   980)     49574.818 1  Rx        07E8 -  8    29 4E 4F 50 51 52 53 54 
   981)     49584.589 1  Rx        07E8 -  8    2A 55 56 57 58 59 5A 5B 
   982)     49595.383 1  Rx        07E8 -  8    2B 5C 5D 5E 5F 60 61 62 
   983)     49606.050 1  Rx        07E8 -  8    2C 63 64 65 66 67 68 69 
   984)     49615.820 1  Rx        07E8 -  8    2D 6A 6B 6C 6D 6E 6F 70 
   985)     49625.548 1  Rx        07E8 -  8    2E 71 72 73 74 75 76 77 
   986)     49635.361 1  Rx        07E8 -  8    2F 78 79 7A 7B 7C 7D 7E 
   987)     49645.132 1  Rx        07E8 -  8    20 7F 80 81 82 83 84 85 
   988)     49654.817 1  Rx        07E8 -  8    21 86 87 88 89 8A 8B 8C 
   989)     49664.673 1  Rx        07E8 -  8    22 8D 8E 8F 90 91 92 93 
   990)     49665.441 1  Rx        07E0 -  8    30 0A 0A 55 55 55 55 55 
   991)     49675.339 1  Rx        07E8 -  8    23 94 95 96 97 98 99 9A 
   992)     49685.152 1  Rx        07E8 -  8    24 9B 9C 9D 9E 9F A0 A1 
   993)     49695.819 1  Rx        07E8 -  8    25 A2 A3 A4 A5 A6 A7 A8 
   994)     49705.589 1  Rx        07E8 -  8    26 A9 AA AB AC AD AE AF 
   995)     49715.360 1  Rx        07E8 -  8    27 B0 B1 B2 B3 B4 B5 B6 
   996)     49725.130 1  Rx        07E8 -  8    28 B7 B8 B9 BA BB BC BD 
   997)     49734.901 1  Rx        07E8 -  8    29 BE BF C0 C1 C2 C3 C4 
   998)     49744.629 1  Rx        07E8 -  8    2A C5 C6 C7 C8 C9 CA CB 
   999)     49754.399 1  Rx        07E8 -  8    2B CC CD CE CF D0 D1 D2 
  1000)     49764.212 1  Rx        07E8 -  8    2C D3 D4 D5 D6 D7 D8 D9 
  1001)     49764.938 1  Rx        07E0 -  8    30 0A 0A 55 55 55 55 55 
  1002)     49774.922 1  Rx        07E8 -  8    2D DA DB DC DD DE DF E0 
  1003)     49785.673 1  Rx        07E8 -  8    2E E1 E2 E3 E4 E5 E6 E7 
  1004)     49795.401 1  Rx        07E8 -  8    2F E8 E9 EA EB EC ED EE 
  1005)     49805.172 1  Rx        07E8 -  8    20 EF F0 F1 F2 F3 F4 F5 
  1006)     49814.985 1  Rx        07E8 -  8    21 F6 F7 F8 F9 FA FB FC 
  1007)     49825.652 1  Rx        07E8 -  8    22 FD FE FF 00 01 02 03 
  1008)     49835.422 1  Rx        07E8 -  8    23 04 05 06 07 08 09 0A 
  1009)     49845.193 1  Rx        07E8 -  8    24 0B 0C 0D 0E 0F 10 11 
  1010)     49854.963 1  Rx        07E8 -  8    25 12 13 14 15 16 17 18 
  1011)     49864.648 1  Rx        07E8 -  8    26 19 1A 1B 1C 1D 1E 1F 
  1012)     49865.502 1  Rx        07E0 -  8    30 0A 0A 55 55 55 55 55 
  1013)     49875.443 1  Rx        07E8 -  8    27 20 21 22 23 24 25 26 
  1014)     49885.171 1  Rx        07E8 -  8    28 27 28 29 2A 2B 2C 2D 
  1015)     49894.941 1  Rx        07E8 -  8    29 2E 2F 30 31 32 33 34 
  1016)     49904.712 1  Rx        07E8 -  8    2A 35 36 37 38 39 3A 3B 
  1017)     49914.482 1  Rx        07E8 -  8    2B 3C 3D 3E 3F 40 41 42 
  1018)     49924.295 1  Rx        07E8 -  8    2C 43 44 45 46 47 48 49 
  1019)     49934.023 1  Rx        07E8 -  8    2D 4A 4B 4C 4D 4E 4F 50 
  1020)     49943.708 1  Rx        07E8 -  8    2E 51 52 53 54 55 56 57 
  1021)     49953.522 1  Rx        07E8 -  8    2F 58 59 5A 5B 5C 5D 5E 
  1022)     49963.292 1  Rx        07E8 -  8    20 5F 60 61 62 63 64 65 
  1023)     49964.103 1  Rx        07E0 -  8    30 0A 0A 55 55 55 55 55 
  1024)     49974.044 1  Rx        07E8 -  8    21 66 67 68 69 6A 6B 6C 
  1025)     49983.857 1  Rx        07E8 -  8    22 6D 6E 6F 70 71 72 73 
  1026)     49994.481 1  Rx        07E8 -  8    23 74 75 76 77 78 79 7A 
  1027)     50004.337 1  Rx        07E8 -  8    24 7B 7C 7D 7E 7F 80 81 
  1028)     50015.046 1  Rx        07E8 -  8    25 82 83 84 85 86 87 88 
  1029)     50024.774 1  Rx        07E8 -  8    26 89 8A 8B 8C 8D 8E 8F 
  1030)     50034.544 1  Rx        07E8 -  8    27 90 91 92 93 94 95 96 
  1031)     50044.315 1  Rx        07E8 -  8    28 97 98 99 9A 9B 9C 9D 
  1032)     50054.043 1  Rx        07E8 -  8    29 9E 9F A0 A1 A2 A3 A4 
  1033)     50063.856 1  Rx        07E8 -  8    2A A5 A6 A7 A8 A9 AA AB 
  1034)     50064.666 1  Rx        07E0 -  8    30 0A 0A 55 55 55 55 55 
  1035)     50074.565 1  Rx        07E8 -  8    2B AC AD AE AF B0 B1 B2 
  1036)     50084.293 1  Rx        07E8 -  8    2C B3 B4 B5 B6 B7 B8 B9 
  1037)     50094.063 1  Rx        07E8 -  8    2D BA BB BC BD BE BF C0 
  1038)     50103.962 1  Rx        07E8 -  8    2E C1 C2 C3 C4 C5 C6 C7 
  1039)     50114.628 1  Rx        07E8 -  8    2F C8 C9 CA CB CC CD CE 
  1040)     50125.295 1  Rx        07E8 -  8    20 CF D0 D1 D2 D3 D4 D5 
  1041)     50135.065 1  Rx        07E8 -  8    21 D6 D7 D8 D9 DA DB DC 
  1042)     50144.879 1  Rx        07E8 -  8    22 DD DE DF E0 E1 E2 E3 
  1043)     50155.588 1  Rx        07E8 -  8    23 E4 E5 E6 E7 E8 E9 EA 
  1044)     50165.316 1  Rx        07E8 -  8    24 EB EC ED EE EF F0 F1 
  1045)     50166.084 1  Rx        07E0 -  8    30 0A 0A 55 55 55 55 55 
  1046)     50176.067 1  Rx        07E8 -  8    25 F2 F3 F4 F5 F6 F7 F8 
  1047)     50185.838 1  Rx        07E8 -  8    26 F9 FA FB FC FD FE FF 
  1048)     50196.547 1  Rx        07E8 -  8    27 00 01 02 03 04 05 06 
  1049)     50206.360 1  Rx        07E8 -  8    28 07 08 09 0A 0B 0C 0D 
  1050)     50216.131 1  Rx        07E8 -  8    29 0E 0F 10 11 12 13 14 
  1051)     50225.816 1  Rx        07E8 -  8    2A 15 16 17 18 19 1A 1B 
  1052)     50236.610 1  Rx        07E8 -  8    2B 1C 1D 1E 1F 20 21 22 
  1053)     50246.338 1  Rx        07E8 -  8    2C 23 24 25 26 27 28 29 
  1054)     50256.066 1  Rx        07E8 -  8    2D 2A 2B 2C 2D 2E 2F 30 
  1055)     50265.879 1  Rx        07E8 -  8    2E 31 32 33 34 35 36 37 
  1056)     50266.690 1  Rx        07E0 -  8    30 0A 0A 55 55 55 55 55 
  1057)     50276.588 1  Rx        07E8 -  8    2F 38 39 3A 3B 3C 3D 3E 
  1058)     50286.359 1  Rx        07E8 -  8    20 3F 40 41 42 43 44 45 
  1059)     50295.995 1  Rx        07E8 -  8    21 46 47 48 49 4A 4B 4C 
  1060)     50305.765 1  Rx        07E8 -  8    22 4D 4E 4F 50 51 52 53 
  1061)     50315.536 1  Rx        07E8 -  8    23 54 55 56 57 58 59 5A 
  1062)     50325.306 1  Rx        07E8 -  8    24 5B 5C 5D 5E 5F 60 61 
  1063)     50335.077 1  Rx        07E8 -  8    25 62 63 64 65 66 67 68 
  1064)     50344.847 1  Rx        07E8 -  8    26 69 6A 6B 6C 6D 6E 6F 
  1065)     50354.661 1  Rx        07E8 -  8    27 70 71 72 73 74 75 76 
  1066)     50365.327 1  Rx        07E8 -  8    28 77 78 79 7A 7B 7C 7D 
  1067)     50366.180 1  Rx        07E0 -  8    30 0A 0A 55 55 55 55 55 
  1068)     50376.079 1  Rx        07E8 -  8    29 7E 7F 80 81 82 83 84 
  1069)     50385.807 1  Rx        07E8 -  8    2A 85 86 87 88 89 8A 8B 
  1070)     50395.535 1  Rx        07E8 -  8    2B 8C 8D 8E 8F 90 91 92 
  1071)     50405.348 1  Rx        07E8 -  8    2C 93 94 95 96 97 98 99 
  1072)     50415.076 1  Rx        07E8 -  8    2D 9A 9B 9C 9D 9E 9F A0 
  1073)     50424.889 1  Rx        07E8 -  8    2E A1 A2 A3 A4 A5 A6 A7 
  1074)     50434.659 1  Rx        07E8 -  8    2F A8 A9 AA AB AC AD AE 
  1075)     50445.368 1  Rx        07E8 -  8    20 AF B0 B1 B2 B3 B4 B5 
  1076)     50455.096 1  Rx        07E8 -  8    21 B6 B7 B8 B9 BA BB BC 
  1077)     50465.891 1  Rx        07E8 -  8    22 BD BE BF C0 C1 C2 C3 
  1078)     50466.701 1  Rx        07E0 -  8    30 0A 0A 55 55 55 55 55 
  1079)     50476.557 1  Rx        07E8 -  8    23 C4 C5 C6 C7 C8 C9 CA 
  1080)     50486.371 1  Rx        07E8 -  8    24 CB CC CD CE CF D0 D1 
  1081)     50496.098 1  Rx        07E8 -  8    25 D2 D3 D4 D5 D6 D7 D8 
  1082)     50505.826 1  Rx        07E8 -  8    26 D9 DA DB DC DD DE DF 
  1083)     50515.639 1  Rx        07E8 -  8    27 E0 E1 E2 E3 E4 E5 E6 
  1084)     50525.410 1  Rx        07E8 -  8    28 E7 E8 E9 EA EB EC ED 
  1085)     50535.138 1  Rx        07E8 -  8    29 EE EF F0 F1 F2 F3 F4 
  1086)     50544.994 1  Rx        07E8 -  8    2A F5 F6 F7 F8 F9 FA FB 
  1087)     50555.660 1  Rx        07E8 -  8    2B FC FD FE FF 00 01 02 
  1088)     50566.412 1  Rx        07E8 -  8    2C 03 04 05 06 07 08 09 
  1089)     50567.265 1  Rx        07E0 -  8    30 0A 0A 55 55 55 55 55 
  1090)     50577.121 1  Rx        07E8 -  8    2D 0A 0B 0C 0D 0E 0F 10 
  1091)     50586.892 1  Rx        07E8 -  8    2E 11 12 13 14 15 16 17 
  1092)     50596.577 1  Rx        07E8 -  8    2F 18 19 1A 1B 1C 1D 1E 
  1093)     50606.433 1  Rx        07E8 -  8    20 1F 20 21 22 23 24 25 
  1094)     50616.160 1  Rx        07E8 -  8    21 26 27 28 29 2A 2B 2C 
  1095)     50625.888 1  Rx        07E8 -  8    22 2D 2E 2F 30 31 32 33 
  1096)     50635.659 1  Rx        07E8 -  8    23 34 35 36 37 38 39 3A 
  1097)     50645.429 1  Rx        07E8 -  8    24 3B 3C 3D 3E 3F 40 41 
  1098)     50655.200 1  Rx        07E8 -  8    25 42 43 44 45 46 47 48 
  1099)     50664.928 1  Rx        07E8 -  8    26 49 4A 4B 4C 4D 4E 4F 
  1100)     50665.781 1  Rx        07E0 -  8    30 0A 0A 55 55 55 55 55 
  1101)     50675.722 1  Rx        07E8 -  8    27 50 51 52 53 54 55 56 
  1102)     50685.493 1  Rx        07E8 -  8    28 57 58 59 5A 5B 5C 5D 
  1103)     50695.221 1  Rx        07E8 -  8    29 5E 5F 60 61 62 63 64 
  1104)     50704.991 1  Rx        07E8 -  8    2A 65 66 67 68 69 6A 6B 
  1105)     50714.762 1  Rx        07E8 -  8    2B 6C 6D 6E 6F 70 71 72 
  1106)     50724.489 1  Rx        07E8 -  8    2C 73 74 75 76 77 78 79 
  1107)     50734.303 1  Rx        07E8 -  8    2D 7A 7B 7C 7D 7E 7F 80 
  1108)     50744.030 1  Rx        07E8 -  8    2E 81 82 83 84 85 86 87 
  1109)     50753.801 1  Rx        07E8 -  8    2F 88 89 8A 8B 8C 8D 8E 
  1110)     50763.572 1  Rx        07E8 -  8    20 8F 90 91 92 93 94 95 
  1111)     50764.425 1  Rx        07E0 -  8    30 0A 0A 55 55 55 55 55 
  1112)     50774.281 1  Rx        07E8 -  8    21 96 97 98 99 9A 9B 9C 
  1113)     50784.009 1  Rx        07E8 -  8    22 9D 9E 9F A0 A1 A2 A3 
  1114)     50793.822 1  Rx        07E8 -  8    23 A4 A5 A6 A7 A8 A9 AA 
  1115)     50803.592 1  Rx        07E8 -  8    24 AB AC AD AE AF B0 B1 
  1116)     50814.301 1  Rx        07E8 -  8    25 B2 B3 B4 B5 B6 B7 B8 
  1117)     50824.029 1  Rx        07E8 -  8    26 B9 BA BB BC BD BE BF 
  1118)     50833.885 1  Rx        07E8 -  8    27 C0 C1 C2 C3 C4 C5 C6 
  1119)     50844.594 1  Rx        07E8 -  8    28 C7 C8 C9 CA CB CC CD 
  1120)     50854.365 1  Rx        07E8 -  8    29 CE CF D0 D1 D2 D3 D4 
  1121)     50864.050 1  Rx        07E8 -  8    2A D5 D6 D7 D8 D9 DA DB 
  1122)     50864.946 1  Rx        07E0 -  8    30 0A 0A 55 55 55 55 55 
  1123)     50874.844 1  Rx        07E8 -  8    2B DC DD DE DF E0 E1 E2 
  1124)     50884.572 1  Rx        07E8 -  8    2C E3 E4 E5 E6 E7 E8 E9 
  1125)     50895.367 1  Rx        07E8 -  8    2D EA EB EC ED EE EF F0 
  1126)     50906.076 1  Rx        07E8 -  8    2E F1 F2 F3 F4 F5 F6 F7 
  1127)     50915.804 1  Rx        07E8 -  8    2F F8 F9 FA FB FC FD FE 
  1128)     50925.574 1  Rx        07E8 -  8    20 FF 00 01 02 03 04 05 
  1129)     50935.388 1  Rx        07E8 -  8    21 06 07 08 09 0A 0B 0C 
  1130)     50945.073 1  Rx        07E8 -  8    22 0D 0E 0F 10 11 12 13 
  1131)     50954.843 1  Rx        07E8 -  8    23 14 15 16 17 18 19 1A 
  1132)     50964.614 1  Rx        07E8 -  8    24 1B 1C 1D 1E 1F 20 21 
  1133)     50965.467 1  Rx        07E0 -  8    30 0A 0A 55 55 55 55 55 
  1134)     50975.323 1  Rx        07E8 -  8    25 22 23 24 25 26 27 28 
  1135)     50985.093 1  Rx        07E8 -  8    26 29 2A 2B 2C 2D 2E 2F 
  1136)     50994.864 1  Rx        07E8 -  8    27 30 31 32 33 34 35 36 
  1137)     51004.634 1  Rx        07E8 -  8    28 37 38 39 3A 3B 3C 3D 
  1138)     51014.405 1  Rx        07E8 -  8    29 3E 3F 40 41 42 43 44 
  1139)     51024.133 1  Rx        07E8 -  8    2A 45 46 47 48 49 4A 4B 
  1140)     51033.903 1  Rx        07E8 -  8    2B 4C 4D 4E 4F 50 51 52 
  1141)     51043.631 1  Rx        07E8 -  8    2C 53 54 55 56 57 58 59 
  1142)     51053.444 1  Rx        07E8 -  8    2D 5A 5B 5C 5D 5E 5F 60 
  1143)     51063.172 1  Rx        07E8 -  8    2E 61 62 63 64 65 66 67 
  1144)     51064.025 1  Rx        07E0 -  8    30 0A 0A 55 55 55 55 55 
  1145)     51073.967 1  Rx        07E8 -  8    2F 68 69 6A 6B 6C 6D 6E 
  1146)     51083.652 1  Rx        07E8 -  8    20 6F 70 71 72 73 74 75 
  1147)     51093.465 1  Rx        07E8 -  8    21 76 77 78 79 7A 7B 7C 
  1148)     51103.364 1  Rx        07E8 -  8    22 7D 7E 7F 80 81 82 83 
  1149)     51113.859 1  Rx        07E8 -  8    23 84 85 86 87 88 89 8A 
  1150)     51124.654 1  Rx        07E8 -  8    24 8B 8C 8D 8E 8F 90 91 
  1151)     51135.790 1  Rx        07E8 -  8    25 92 93 94 95 96 97 98 
  1152)     51146.115 1  Rx        07E8 -  8    26 99 9A 9B 9C 9D 9E 9F 
  1153)     51156.909 1  Rx        07E8 -  8    27 A0 A1 A2 A3 A4 A5 A6 
  1154)     51166.595 1  Rx        07E8 -  8    28 A7 A8 A9 AA AB AC AD 
  1155)     51167.448 1  Rx        07E0 -  8    30 0A 0A 55 55 55 55 55 
  1156)     51177.389 1  Rx        07E8 -  8    29 AE AF B0 B1 B2 B3 B4 
  1157)     51187.117 1  Rx        07E8 -  8    2A B5 B6 B7 B8 B9 BA BB 
  1158)     51196.930 1  Rx        07E8 -  8    2B BC BD BE BF C0 C1 C2 
  1159)     51206.658 1  Rx        07E8 -  8    2C C3 C4 C5 C6 C7 C8 C9 
  1160)     51216.428 1  Rx        07E8 -  8    2D CA CB CC CD CE CF D0 
  1161)     51226.199 1  Rx        07E8 -  8    2E D1 D2 D3 D4 D5 D6 D7 
  1162)     51235.927 1  Rx        07E8 -  8    2F D8 D9 DA DB DC DD DE 
  1163)     51245.655 1  Rx        07E8 -  8    20 DF E0 E1 E2 E3 E4 E5 
  1164)     51255.425 1  Rx        07E8 -  8    21 E6 E7 E8 E9 EA EB EC 
  1165)     51265.238 1  Rx        07E8 -  8    22 ED EE EF F0 F1 F2 F3 
  1166)     51266.092 1  Rx        07E0 -  8    30 0A 0A 55 55 55 55 55 
  1167)     51275.990 1  Rx        07E8 -  8    23 F4 F5 F6 F7 F8 F9 FA 
  1168)     51285.718 1  Rx        07E8 -  8    24 FB FC FD FE FF 00 01 
  1169)     51295.489 1  Rx        07E8 -  8    25 02 03 04 05 06 07 08 
  1170)     51305.259 1  Rx        07E8 -  8    26 09 0A 0B 0C 0D 0E 0F 
  1171)     51315.030 1  Rx        07E8 -  8    27 10 11 12 13 14 15 16 
  1172)     51324.800 1  Rx        07E8 -  8    28 17 18 19 1A 1B 1C 1D 
  1173)     51334.485 1  Rx        07E8 -  8    29 1E 1F 20 21 22 23 24 
  1174)     51345.224 1  Rx        07E8 -  8    2A 25 26 27 28 29 2A 2B 
  1175)     51355.037 1  Rx        07E8 -  8    2B 2C 2D 2E 2F 30 31 32 
  1176)     51364.765 1  Rx        07E8 -  8    2C 33 34 35 36 37 38 39 
  1177)     51365.618 1  Rx        07E0 -  8    30 0A 0A 55 55 55 55 55 
  1178)     51375.517 1  Rx        07E8 -  8    2D 3A 3B 3C 3D 3E 3F 40 
  1179)     51385.287 1  Rx        07E8 -  8    2E 41 42 43 44 45 46 47 
  1180)     51395.058 1  Rx        07E8 -  8    2F 48 49 4A 4B 4C 4D 4E 
  1181)     51405.724 1  Rx        07E8 -  8    20 4F 50 51 52 53 54 55 
  1182)     51415.495 1  Rx        07E8 -  8    21 56 57 58 59 5A 5B 5C 
  1183)     51425.308 1  Rx        07E8 -  8    22 5D 5E 5F 60 61 62 63 
  1184)     51435.121 1  Rx        07E8 -  8    23 64 65 66 67 68 69 6A 
  1185)     51445.745 1  Rx        07E8 -  8    24 6B 6C 6D 6E 6F 70 71 
  1186)     51455.558 1  Rx        07E8 -  8    25 72 73 74 75 76 77 78 
  1187)     51466.268 1  Rx        07E8 -  8    26 79 7A 7B 7C 7D 7E 7F 
  1188)     51467.121 1  Rx        07E0 -  8    30 0A 0A 55 55 55 55 55 
  1189)     51476.977 1  Rx        07E8 -  8    27 80 81 82 83 84 85 86 
  1190)     51486.747 1  Rx        07E8 -  8    28 87 88 89 8A 8B 8C 8D 
  1191)     51496.560 1  Rx        07E8 -  8    29 8E 8F 90 91 92 93 94 
  1192)     51506.331 1  Rx        07E8 -  8    2A 95 96 97 98 99 9A 9B 
  1193)     51516.059 1  Rx        07E8 -  8    2B 9C 9D 9E 9F A0 A1 A2 
  1194)     51526.811 1  Rx        07E8 -  8    2C A3 A4 A5 A6 A7 A8 A9 
  1195)     51536.581 1  Rx        07E8 -  8    2D AA AB AC AD AE AF B0 
  1196)     51546.352 1  Rx        07E8 -  8    2E B1 B2 B3 B4 B5 B6 B7 
  1197)     51557.018 1  Rx        07E8 -  8    2F B8 B9 BA BB BC BD BE 
  1198)     51566.789 1  Rx        07E8 -  8    20 BF C0 C1 C2 C3 C4 C5 
  1199)     51567.599 1  Rx        07E0 -  8    30 0A 0A 55 55 55 55 55 
  1200)     51577.498 1  Rx        07E8 -  8    21 C6 C7 C8 C9 CA CB CC 
  1201)     51587.268 1  Rx        07E8 -  8    22 CD CE CF D0 D1 D2 D3 
  1202)     51597.081 1  Rx        07E8 -  8    23 D4 D5 D6 D7 D8 D9 DA 
  1203)     51606.809 1  Rx        07E8 -  8    24 DB DC DD DE DF E0 E1 
  1204)     51616.580 1  Rx        07E8 -  8    25 E2 E3 E4 E5 E6 E7 E8 
  1205)     51626.308 1  Rx        07E8 -  8    26 E9 EA EB EC ED EE EF 
  1206)     51636.121 1  Rx        07E8 -  8    27 F0 F1 F2 F3 F4 F5 F6 
  1207)     51646.787 1  Rx        07E8 -  8    28 F7 F8 F9 FA FB FC FD 
  1208)     51656.643 1  Rx        07E8 -  8    29 FE FF 00 01 02 03 04 
  1209)     51667.352 1  Rx        07E8 -  8    2A 05 06 07 08 09 0A 0B 
  1210)     51668.206 1  Rx        07E0 -  8    30 0A 0A 55 55 55 55 55 
  1211)     51678.062 1  Rx        07E8 -  8    2B 0C 0D 0E 0F 10 11 12 
  1212)     51687.789 1  Rx        07E8 -  8    2C 13 14 15 16 17 18 19 
  1213)     51697.603 1  Rx        07E8 -  8    2D 1A 1B 1C 1D 1E 1F 20 
  1214)     51707.288 1  Rx        07E8 -  8    2E 21 22 23 24 25 26 27 
  1215)     51717.101 1  Rx        07E8 -  8    2F 28 29 2A 2B 2C 2D 2E 
  1216)     51726.829 1  Rx        07E8 -  8    20 2F 30 31 32 33 34 35 
  1217)     51736.642 1  Rx        07E8 -  8    21 36 37 38 39 3A 3B 3C 
  1218)     51746.370 1  Rx        07E8 -  8    22 3D 3E 3F 40 41 42 43 
  1219)     51756.140 1  Rx        07E8 -  8    23 44 45 46 47 48 49 4A 
  1220)     51765.954 1  Rx        07E8 -  8    24 4B 4C 4D 4E 4F 50 51 
  1221)     51766.807 1  Rx        07E0 -  8    30 0A 0A 55 55 55 55 55 
  1222)     51776.663 1  Rx        07E8 -  8    25 52 53 54 55 56 57 58 
  1223)     51786.391 1  Rx        07E8 -  8    26 59 5A 5B 5C 5D 5E 5F 
  1224)     51796.118 1  Rx        07E8 -  8    27 60 61 62 63 64 65 66 
  1225)     51805.932 1  Rx        07E8 -  8    28 67 68 69 6A 6B 6C 6D 
  1226)     51815.702 1  Rx        07E8 -  8    29 6E 6F 70 71 72 73 74 
  1227)     51825.430 1  Rx        07E8 -  8    2A 75 76 77 78 79 7A 7B 
  1228)     51835.243 1  Rx        07E8 -  8    2B 7C 7D 7E 7F 80 81 82 
  1229)     51844.971 1  Rx        07E8 -  8    2C 83 84 85 86 87 88 89 
  1230)     51854.741 1  Rx        07E8 -  8    2D 8A 8B 8C 8D 8E 8F 90 
  1231)     51865.451 1  Rx        07E8 -  8    2E 91 92 93 94 95 96 97 
  1232)     51866.261 1  Rx        07E0 -  8    30 0A 0A 55 55 55 55 55 
  1233)     51876.202 1  Rx        07E8 -  8    2F 98 99 9A 9B 9C 9D 9E 
  1234)     51886.016 1  Rx        07E8 -  8    20 9F A0 A1 A2 A3 A4 A5 
  1235)     51896.682 1  Rx        07E8 -  8    21 A6 A7 A8 A9 AA AB AC 
  1236)     51906.410 1  Rx        07E8 -  8    22 AD AE AF B0 B1 B2 B3 
  1237)     51916.223 1  Rx        07E8 -  8    23 B4 B5 B6 B7 B8 B9 BA 
  1238)     51925.951 1  Rx        07E8 -  8    24 BB BC BD BE BF C0 C1 
  1239)     51935.722 1  Rx        07E8 -  8    25 C2 C3 C4 C5 C6 C7 C8 
  1240)     51945.535 1  Rx        07E8 -  8    26 C9 CA CB CC CD CE CF 
  1241)     51956.244 1  Rx        07E8 -  8    27 D0 D1 D2 D3 D4 D5 D6 
  1242)     51967.038 1  Rx        07E8 -  8    28 D7 D8 D9 DA DB DC DD 
  1243)     51967.934 1  Rx        07E0 -  8    30 0A 0A 55 55 55 55 55 
  1244)     51977.705 1  Rx        07E8 -  8    29 DE DF E0 E1 E2 E3 E4 
  1245)     51987.475 1  Rx        07E8 -  8    2A E5 E6 E7 E8 E9 EA EB 
  1246)     51997.246 1  Rx        07E8 -  8    2B EC ED EE EF F0 F1 F2 
  1247)     52007.016 1  Rx        07E8 -  8    2C F3 F4 F5 F6 F7 F8 F9 
  1248)     52016.787 1  Rx        07E8 -  8    2D FA FB FC FD FE FF 00 
  1249)     52026.557 1  Rx        07E8 -  8    2E 01 02 03 04 05 06 07 
  1250)     52036.285 1  Rx        07E8 -  8    2F 08 09 0A 0B 0C 0D 0E 
  1251)     52046.013 1  Rx        07E8 -  8    20 0F 10 11 12 13 14 15 
  1252)     52055.784 1  Rx        07E8 -  8    21 16 17 18 19 1A 1B 1C 
  1253)     52065.554 1  Rx        07E8 -  8    22 1D 1E 1F 20 21 22 23 
  1254)     52066.365 1  Rx        07E0 -  8    30 0A 0A 55 55 55 55 55 
  1255)     52076.306 1  Rx        07E8 -  8    23 24 25 26 27 28 29 2A 
  1256)     52086.034 1  Rx        07E8 -  8    24 2B 2C 2D 2E 2F 30 31 
  1257)     52095.762 1  Rx        07E8 -  8    25 32 33 34 35 36 37 38 
  1258)     52105.788 1  Rx        07E8 -  8    26 39 3A 3B 3C 3D 3E 3F 
  1259)     52116.327 1  Rx        07E8 -  8    27 40 41 42 43 44 45 46 
  1260)     52127.121 1  Rx        07E8 -  8    28 47 48 49 4A 4B 4C 4D 
  1261)     52137.745 1  Rx        07E8 -  8    29 4E 4F 50 51 52 53 54 
  1262)     52148.412 1  Rx        07E8 -  8    2A 55 56 57 58 59 5A 5B 
  1263)     52158.225 1  Rx        07E8 -  8    2B 5C 5D 5E 5F 60 61 62 
  1264)     52167.995 1  Rx        07E8 -  8    2C 63 64 65 66 67 68 69 
  1265)     52168.763 1  Rx        07E0 -  8    30 0A 0A 55 55 55 55 55 
  1266)     52178.790 1  Rx        07E8 -  8    2D 6A 6B 6C 6D 6E 6F 70 
  1267)     52188.475 1  Rx        07E8 -  8    2E 71 72 73 74 75 76 77 
  1268)     52198.288 1  Rx        07E8 -  8    2F 78 79 7A 7B 7C 7D 7E 
  1269)     52208.144 1  Rx        07E8 -  8    20 7F 80 81 82 83 84 85 
  1270)     52218.768 1  Rx        07E8 -  8    21 86 87 88 89 8A 8B 8C 
  1271)     52228.496 1  Rx        07E8 -  8    22 8D 8E 8F 90 91 92 93 
  1272)     52238.266 1  Rx        07E8 -  8    23 94 95 96 97 98 99 9A 
  1273)     52248.037 1  Rx        07E8 -  8    24 9B 9C 9D 9E 9F A0 A1 
  1274)     52257.807 1  Rx        07E8 -  8    25 A2 A3 A4 A5 A6 A7 A8 
  1275)     52267.578 1  Rx        07E8 -  8    26 A9 AA AB AC AD AE AF 
  1276)     52268.431 1  Rx        07E0 -  8    30 0A 0A 55 55 55 55 55 
  1277)     52278.287 1  Rx        07E8 -  8    27 B0 B1 B2 B3 B4 B5 B6 
  1278)     52288.100 1  Rx        07E8 -  8    28 B7 B8 B9 BA BB BC BD 
  1279)     52298.809 1  Rx        07E8 -  8    29 BE BF C0 C1 C2 C3 C4 
  1280)     52308.537 1  Rx        07E8 -  8    2A C5 C6 C7 C8 C9 CA CB 
  1281)     52318.393 1  Rx        07E8 -  8    2B CC CD CE CF D0 D1 D2 
  1282)     52328.078 1  Rx        07E8 -  8    2C D3 D4 D5 D6 D7 D8 D9 
  1283)     52337.891 1  Rx        07E8 -  8    2D DA DB DC DD DE DF E0 
  1284)     52347.576 1  Rx        07E8 -  8    2E E1 E2 E3 E4 E5 E6 E7 
  1285)     52357.347 1  Rx        07E8 -  8    2F E8 E9 EA EB EC ED EE 
  1286)     52367.160 1  Rx        07E8 -  8    20 EF F0 F1 F2 F3 F4 F5 
  1287)     52368.013 1  Rx        07E0 -  8    30 0A 0A 55 55 55 55 55 
  1288)     52377.869 1  Rx        07E8 -  8    21 F6 F7 F8 F9 FA FB FC 
  1289)     52387.549 1  Rx        07E8 -  8    22 FD FE FF 00 01 02 03 
  1290)     52397.277 1  Rx        07E8 -  8    23 04 05 06 07 08 09 0A 
  1291)     52407.047 1  Rx        07E8 -  8    24 0B 0C 0D 0E 0F 10 11 
  1292)     52416.775 1  Rx        07E8 -  8    25 12 13 14 15 16 17 18 
  1293)     52426.588 1  Rx        07E8 -  8    26 19 1A 1B 1C 1D 1E 1F 
  1294)     52436.316 1  Rx        07E8 -  8    27 20 21 22 23 24 25 26 
  1295)     52446.087 1  Rx        07E8 -  8    28 27 28 29 2A 2B 2C 2D 
  1296)     52455.900 1  Rx        07E8 -  8    29 2E 2F 30 31 32 33 34 
  1297)     52465.585 1  Rx        07E8 -  8    2A 35 36 37 38 39 3A 3B 
  1298)     52466.396 1  Rx        07E0 -  8    30 0A 0A 55 55 55 55 55 
  1299)     52476.337 1  Rx        07E8 -  8    2B 3C 3D 3E 3F 40 41 42 
  1300)     52486.150 1  Rx        07E8 -  8    2C 43 44 45 46 47 48 49 
  1301)     52495.878 1  Rx        07E8 -  8    2D 4A 4B 4C 4D 4E 4F 50 
  1302)     52505.606 1  Rx        07E8 -  8    2E 51 52 53 54 55 56 57 
  1303)     52515.419 1  Rx        07E8 -  8    2F 58 59 5A 5B 5C 5D 5E 
  1304)     52525.189 1  Rx        07E8 -  8    20 5F 60 61 62 63 64 65 
  1305)     52535.003 1  Rx        07E8 -  8    21 66 67 68 69 6A 6B 6C 
  1306)     52545.669 1  Rx        07E8 -  8    22 6D 6E 6F 70 71 72 73 
  1307)     52555.397 1  Rx        07E8 -  8    23 74 75 76 77 78 79 7A 
  1308)     52565.210 1  Rx        07E8 -  8    24 7B 7C 7D 7E 7F 80 81 
  1309)     52565.978 1  Rx        07E0 -  8    30 0A 0A 55 55 55 55 55 
  1310)     52575.962 1  Rx        07E8 -  8    25 82 83 84 85 86 87 88 
  1311)     52586.628 1  Rx        07E8 -  8    26 89 8A 8B 8C 8D 8E 8F 
  1312)     52596.399 1  Rx        07E8 -  8    27 90 91 92 93 94 95 96 
  1313)     52606.169 1  Rx        07E8 -  8    28 97 98 99 9A 9B 9C 9D 
  1314)     52615.940 1  Rx        07E8 -  8    29 9E 9F A0 A1 A2 A3 A4 
  1315)     52625.710 1  Rx        07E8 -  8    2A A5 A6 A7 A8 A9 AA AB 
  1316)     52635.438 1  Rx        07E8 -  8    2B AC AD AE AF B0 B1 B2 
  1317)     52645.251 1  Rx        07E8 -  8    2C B3 B4 B5 B6 B7 B8 B9 
  1318)     52655.022 1  Rx        07E8 -  8    2D BA BB BC BD BE BF C0 
  1319)     52665.688 1  Rx        07E8 -  8    2E C1 C2 C3 C4 C5 C6 C7 
  1320)     52666.542 1  Rx        07E0 -  8    30 0A 0A 55 55 55 55 55 
  1321)     52676.440 1  Rx        07E8 -  8    2F C8 C9 CA CB CC CD CE 
  1322)     52686.211 1  Rx        07E8 -  8    20 CF D0 D1 D2 D3 D4 D5 
  1323)     52695.896 1  Rx        07E8 -  8    21 D6 D7 D8 D9 DA DB DC 
  1324)     52705.709 1  Rx        07E8 -  8    22 DD DE DF E0 E1 E2 E3 
  1325)     52715.437 1  Rx        07E8 -  8    23 E4 E5 E6 E7 E8 E9 EA 
  1326)     52725.250 1  Rx        07E8 -  8    24 EB EC ED EE EF F0 F1 
  1327)     52735.063 1  Rx        07E8 -  8    25 F2 F3 F4 F5 F6 F7 F8 
  1328)     52745.773 1  Rx        07E8 -  8    26 F9 FA FB FC FD FE FF 
  1329)     52755.586 1  Rx        07E8 -  8    27 00 01 02 03 04 05 06 
  1330)     52766.252 1  Rx        07E8 -  8    28 07 08 09 0A 0B 0C 0D 
  1331)     52767.063 1  Rx        07E0 -  8    30 0A 0A 55 55 55 55 55 
  1332)     52776.961 1  Rx        07E8 -  8    29 0E 0F 10 11 12 13 14 
  1333)     52786.775 1  Rx        07E8 -  8    2A 15 16 17 18 19 1A 1B 
  1334)     52796.460 1  Rx        07E8 -  8    2B 1C 1D 1E 1F 20 21 22 
  1335)     52806.273 1  Rx        07E8 -  8    2C 23 24 25 26 27 28 29 
  1336)     52816.001 1  Rx        07E8 -  8    2D 2A 2B 2C 2D 2E 2F 30 
  1337)     52826.710 1  Rx        07E8 -  8    2E 31 32 33 34 35 36 37 
  1338)     52836.438 1  Rx        07E8 -  8    2F 38 39 3A 3B 3C 3D 3E 
  1339)     52846.251 1  Rx        07E8 -  8    20 3F 40 41 42 43 44 45 
  1340)     52856.064 1  Rx        07E8 -  8    21 46 47 48 49 4A 4B 4C 
  1341)     52865.792 1  Rx        07E8 -  8    22 4D 4E 4F 50 51 52 53 
  1342)     52866.645 1  Rx        07E0 -  8    30 0A 0A 55 55 55 55 55 
  1343)     52876.544 1  Rx        07E8 -  8    23 54 55 56 57 58 59 5A 
  1344)     52886.314 1  Rx        07E8 -  8    24 5B 5C 5D 5E 5F 60 61 
  1345)     52896.042 1  Rx        07E8 -  8    25 62 63 64 65 66 67 68 
  1346)     52905.855 1  Rx        07E8 -  8    26 69 6A 6B 6C 6D 6E 6F 
  1347)     52916.522 1  Rx        07E8 -  8    27 70 71 72 73 74 75 76 
  1348)     52926.292 1  Rx        07E8 -  8    28 77 78 79 7A 7B 7C 7D 
  1349)     52936.063 1  Rx        07E8 -  8    29 7E 7F 80 81 82 83 84 
  1350)     52945.833 1  Rx        07E8 -  8    2A 85 86 87 88 89 8A 8B 
  1351)     52955.604 1  Rx        07E8 -  8    2B 8C 8D 8E 8F 90 91 92 
  1352)     52966.398 1  Rx        07E8 -  8    2C 93 94 95 96 97 98 99 
  1353)     52967.252 1  Rx        07E0 -  8    30 0A 0A 55 55 55 55 55 
  1354)     52977.022 1  Rx        07E8 -  8    2D 9A 9B 9C 9D 9E 9F A0 
  1355)     52986.835 1  Rx        07E8 -  8    2E A1 A2 A3 A4 A5 A6 A7 
  1356)     52996.563 1  Rx        07E8 -  8    2F A8 A9 AA AB AC AD AE 
